vbias,vds,vgs,ids,Rbias,Rfet,Gfet
5.926738655e-05,4.144500000000001e-06,3.0,1.1024577310000001e-06,50,3.7593278031990147,0.2660050020509108
0.2014677425,0.004339901,3.0,0.00394255683,50,1.1007833715868085,0.9084439552883811
0.4029077795,0.007671085,3.0,0.00790473389,50,0.9704419031366027,1.0304583888719783
0.60539758,0.002912759,3.0,0.01204969642,50,0.2417288285508524,4.136866942991164
0.8073239945,0.015278132,3.0,0.01584091725,50,0.9644726854437675,1.0368359986678999
1.00490805,0.040924197999999995,3.0,0.019279677040000002,50,2.12265993434919,0.47110702181628594
1.1033411599999998,0.0464606825,3.0,0.021137609549999995,50,2.1980102522993197,0.45495693159479517
1.079263505,0.046447176,3.0,0.02065632658,50,2.2485690192839702,0.4447272871874922
1.0682054600000002,0.0464245835,3.0,0.020435617530000005,50,2.2717485014508387,0.44018957175997075
1.06151526,0.046399583,3.0,0.020302313540000002,50,2.2854332787533136,0.43755379310197684
1.0572274400000001,0.0463735855,3.0,0.02021707709,50,2.2937828892653247,0.43596105136187924
1.05361037,0.0463450045,3.0,0.02014530731,50,2.300535990185399,0.4346813109059035
1.05177942,0.0463184805,3.0,0.020109218789999998,50,2.3033455940632295,0.43415108986573936
1.0501761699999999,0.046295179500000005,3.0,0.02007761981,50,2.305810147721888,0.43368704964196103
1.0485424349999999,0.046273195,3.0,0.0200453848,50,2.308421387849836,0.43319647152093127
1.047444595,0.046252853499999996,3.0,0.02002383483,50,2.309889883365563,0.4329210700481431
1.0465138999999999,0.046233854000000005,3.0,0.020005600919999998,50,2.311045500951641,0.43270459174785636
1.045305275,0.046214503,3.0,0.01998181544,50,2.312828038011345,0.43237109874361307
1.04491312,0.0461960245,3.0,0.01997434191,50,2.3127682858413636,0.43238226938770447
1.0443471350000002,0.0461782285,3.0,0.019963378130000004,50,2.3131470134608922,0.43231147617540167
1.04361951,0.046161687,3.0,0.019949156460000003,50,2.3139668633387416,0.4321583060861706
1.043119725,0.0461461425,3.0,0.01993947165,50,2.3143111969067647,0.4320940076410504
1.042545785,0.046131621,3.0,0.01992828328,50,2.314881836625518,0.43198749248373475
1.042002225,0.0461183275,3.0,0.01991767795,50,2.3154469921530185,0.4318820527479016
1.04151675,0.046105160000000006,3.0,0.0199082318,50,2.315884226342995,0.4318005143025205
1.040988445,0.046092562000000004,3.0,0.01989791766,50,2.3164515396833742,0.43169476368009224
1.040577865,0.0460779585,3.0,0.01988999813,50,2.316639659734347,0.4316597084048331
1.040114815,0.046063310499999996,3.0,0.019881030089999998,50,2.316947879032157,0.43160228551093827
1.03965775,0.0460511265,3.0,0.019872132469999998,50,2.31737215769476,0.4315232651257727
1.039120785,0.0460392255,3.0,0.01986163119,50,2.3179982076789334,0.43140671838625955
1.03891978,0.046027003999999996,3.0,0.019857855520000002,50,2.317823490741159,0.4314392377135823
1.038597585,0.0460168965,3.0,0.019851613770000002,50,2.318043108895323,0.43139836190387154
1.03834669,0.046006807,3.0,0.01984679766,50,2.3180972461226776,0.43138828695501513
1.038063215,0.045999621000000004,3.0,0.01984127188,50,2.3183806601817505,0.431335551221172
1.03760472,0.0459927485,3.0,0.01983223943,50,2.3190900181664458,0.43120361528296136
1.037206085,0.045986171,3.0,0.01982439828,50,2.3196755003854777,0.4310947802112074
1.0369038449999999,0.045978677999999995,3.0,0.019818503339999998,50,2.3199873982007766,0.4310368240687564
1.03664556,0.0459714665,3.0,0.01981348187,50,2.3202113995726488,0.43099521025721466
1.03642456,0.045962763000000004,3.0,0.01980923594,50,2.3202693500757006,0.43098444582193624
1.036091335,0.045955213,3.0,0.01980272244,50,2.3206512710178653,0.4309135166014789
1.035732565,0.045949181,3.0,0.01979566768,50,2.3211735892305096,0.4308165510066437
1.035450035,0.045942522,3.0,0.01979015026,50,2.3214842432429315,0.4307589004365063
1.0352544799999999,0.045935643,3.0,0.019786376739999997,50,2.3215793171034105,0.4307412598970259
1.034884645,0.0459273095,3.0,0.01977914671,50,2.3220066150164067,0.4306619944719383
1.034734195,0.045917653,3.0,0.01977633084,50,2.321848950217097,0.4306912385090762
1.03449741,0.045909928,3.0,0.01977174964,50,2.321996223698896,0.4306639217556603
1.03418534,0.045902227500000004,3.0,0.01976566225,50,2.322321757774648,0.4306035529539389
1.0341406549999999,0.0458952985,3.0,0.01976490713,50,2.322059911444674,0.43065210982340596
1.03399616,0.045888564,3.0,0.019762151920000002,50,2.3220428719384114,0.430655270014551
1.033752825,0.0458814475,3.0,0.01975742755,50,2.3222379221124867,0.4306190982749618
1.03361368,0.045875177,3.0,0.01975477006,50,2.32223290175821,0.4306200292153641
1.033426155,0.045868963,3.0,0.01975114384,50,2.322344638446013,0.43059931047492833
1.033079475,0.04586421,3.0,0.0197443053,50,2.322908266618021,0.4304948302826975
1.0330493600000001,0.0458585095,3.0,0.01974381701,50,2.322676991828542,0.4305376957356192
1.032874555,0.045853644,3.0,0.01974041822,50,2.32283042278929,0.43050925723591343
1.032648,0.045848659,3.0,0.01973598682,50,2.3230993929088974,0.4304594125642802
1.032238905,0.045844476499999995,3.0,0.01972788857,50,2.32384101001641,0.43032203825034415
1.031987755,0.045839660500000004,3.0,0.01972296189,50,2.3241773094558265,0.43025977232095775
1.0317732949999998,0.045835892,3.0,0.019718748059999996,50,2.324482865774797,0.4302032141100252
1.0315910449999999,0.045831672000000004,3.0,0.019715187459999995,50,2.3246886235795405,0.4301651368948528
1.03138439,0.045827991,3.0,0.01971112798,50,2.324980642736408,0.43011110785982304
1.03138458,0.045825101,3.0,0.01971118958,50,2.3248267596440013,0.4301395774337737
1.031236935,0.045821658,3.0,0.01970830554,50,2.3249922682089696,0.4301089572097107
1.03072017,0.045817268499999994,3.0,0.01969805803,50,2.3259789584445647,0.4299265031480435
1.03059549,0.045812271,3.0,0.019695664380000002,50,2.326007902862122,0.4299211532211534
1.03040382,0.0458054805,3.0,0.01969196679,50,2.3260998247905333,0.4299041637604915
1.030097845,0.0458012415,3.0,0.019685932070000002,50,2.326597558964349,0.4298121934096481
1.0300981249999999,0.045797629500000006,3.0,0.019686009909999996,50,2.326404878864557,0.4298477917945511
1.0298754350000001,0.0457914405,3.0,0.019681679890000005,50,2.3266022390327574,0.42981132882246853
1.0296941450000001,0.045786630999999994,3.0,0.01967815028,50,2.3267751464697115,0.42977938866041493
1.02957236,0.045782706,3.0,0.01967579308,50,2.3268544151613937,0.4297647474135758
1.029387545,0.0457786365,3.0,0.019672178170000002,50,2.327075126322933,0.42972398642759935
1.02924975,0.045773087000000004,3.0,0.019669533259999997,50,2.327105905104736,0.4297183028096837
1.0292008149999998,0.0457681395,3.0,0.019668653509999995,50,2.32695845075162,0.42974553313446345
1.0291102699999999,0.045765136,3.0,0.019666902679999997,50,2.3270128878270326,0.42973547986397326
1.029004655,0.045760878500000005,3.0,0.01966487553,50,2.327036264744667,0.42973116283158763
1.02880924,0.045756896,3.0,0.019661046879999998,50,2.327286857066891,0.4296848912129004
1.028755805,0.0457546895,3.0,0.01966002231,50,2.3272959093605423,0.4296832199025195
1.0285913199999999,0.045753868,3.0,0.019656749039999998,50,2.327641661746525,0.42961939392752535
1.028407705,0.045752224999999994,3.0,0.0196531096,50,2.3279891035665927,0.429555275180606
1.028417685,0.0457515665,3.0,0.01965332237,50,2.3279303946002488,0.4295661082992645
1.02831424,0.045748933000000006,3.0,0.01965130614,50,2.3280352295198634,0.42954676429284155
1.0282591700000001,0.0457458105,3.0,0.01965026719,50,2.327999413833924,0.42955337276186206
1.028118345,0.045744399500000005,3.0,0.019647478910000002,50,2.3282579769925302,0.4295056689945181
1.028089765,0.045743677999999996,3.0,0.01964692174,50,2.3282872810995374,0.4295002631839093
1.02793979,0.045741947500000005,3.0,0.019643956849999998,50,2.3285505995193634,0.4294516942025697
1.0278556,0.0457410385,3.0,0.01964229123,50,2.3287017774249748,0.42942381445930666
1.02775851,0.045738342,3.0,0.01964040336,50,2.328788322807643,0.42940785566735235
1.02761887,0.045736756,3.0,0.01963764228,50,2.329034990446929,0.42936237716553394
1.027591535,0.045735445,3.0,0.0196371218,50,2.3290299599812023,0.4293633045442108
1.02749757,0.0457327675,3.0,0.01963529605,50,2.329110158743952,0.42934852018303943
1.02736513,0.045729319,3.0,0.01963271622,50,2.3292405639427107,0.4293244826147531
1.027336845,0.045726515999999995,3.0,0.01963220658,50,2.329158253997957,0.42933965447968964
1.027309185,0.0457236375,3.0,0.019631710950000002,50,2.3290704318362017,0.42935584357215684
1.027293335,0.0457233305,3.0,0.01963140009,50,2.3290916740722385,0.4293519276772719
1.0271938999999999,0.0457230105,3.0,0.019629417789999996,50,2.329310578090254,0.42931157802918496
1.02707327,0.045723337,3.0,0.019626998660000002,50,2.3296143130220197,0.42925560441924876
1.02697293,0.045722703,3.0,0.019625004539999998,50,2.3298187221718734,0.4292179432173989
1.026961155,0.045721412,3.0,0.01962479486,50,2.3297778308598334,0.4292254766760046
1.026878065,0.0457196625,3.0,0.01962316805,50,2.3298818204841294,0.42920631905364565
0.00350884483,2.7289500000000004e-05,3.7777777777777777,6.96311066e-05,50,0.3919153569792614,2.55157135894758
0.2015389155,0.006748738000000001,3.7777777777777777,0.0038958035499999997,50,1.732309628394892,0.577264008470917
0.4026341145,0.013201093,3.7777777777777777,0.007788660429999999,50,1.6949118681760276,0.5900011786902796
0.6039054850000001,0.019986761,3.7777777777777777,0.011678374480000002,50,1.71143347340237,0.5843055050290541
0.8050942405,0.0271055985,3.7777777777777777,0.01555977284,50,1.7420304768408175,0.574042769799014
1.00618125,0.035162034,3.7777777777777777,0.01942038432,50,1.8105735406991164,0.5523111751726307
1.11086437,0.0387001325,3.7777777777777777,0.02144328475,50,1.804766991213881,0.5540881481478132
1.106671145,0.038702942000000004,3.7777777777777777,0.02135936406,50,1.81198943429592,0.551879597680197
1.10216604,0.038701536999999994,3.7777777777777777,0.02126929006,50,1.8195970289005496,0.5495722317178257
1.10102791,0.0386988655,3.7777777777777777,0.02124658089,50,1.821416146925276,0.5490233528938981
1.10017079,0.038694025,3.7777777777777777,0.021229535299999998,50,1.8226505881172068,0.5486515114413659
1.09218248,0.038688187,3.7777777777777777,0.02106988586,50,1.8361839858585738,0.5446077341385885
1.0894929549999999,0.0386828575,3.7777777777777777,0.021016201949999997,50,1.840620754978994,0.5432949711639063
1.07885074,0.038677620999999995,3.7777777777777777,0.020803462380000002,50,1.8591915275211026,0.5378681998047399
1.076946375,0.0386720215,3.7777777777777777,0.020765487069999998,50,1.8623219079637994,0.5369640961230847
1.076136585,0.038666485,3.7777777777777777,0.020749402,50,1.8634987649282615,0.5366249867294636
1.0757186399999998,0.038661901,3.7777777777777777,0.020741134779999996,50,1.864020527810292,0.5364747786199131
1.076073725,0.038658226500000004,3.7777777777777777,0.020748309970000003,50,1.8631988126211707,0.5367113768139364
1.07605948,0.038654778,3.7777777777777777,0.02074809404,50,1.863051995305107,0.5367536722109748
1.07662102,0.038650351,3.7777777777777777,0.020759413379999998,50,1.861822889332531,0.5371080169491863
1.0767244900000001,0.0386463255,3.7777777777777777,0.020761563290000003,50,1.8614362011272223,0.5372195938783366
1.076714395,0.0386432715,3.7777777777777777,0.02076142247,50,1.861301727077663,0.5372584065508015
1.077069175,0.038639754,3.7777777777777777,0.02076858842,50,1.8604901411012698,0.5374927702697072
1.077152775,0.038635596499999994,3.7777777777777777,0.020770343570000002,50,1.8601327594698036,0.5375960371156688
1.0769378,0.0386313075,3.7777777777777777,0.020766129850000002,50,1.8603036665495953,0.5375466478839734
1.07794978,0.038627351000000004,3.7777777777777777,0.020786448580000002,50,1.8582948814626226,0.5381277266463341
1.078493025,0.038623544499999996,3.7777777777777777,0.020797389609999998,50,1.8571342473398036,0.5384640348065414
1.0791670199999999,0.0386200705,3.7777777777777777,0.02081093899,50,1.855758191331856,0.5388633091697748
1.07919678,0.038617004499999996,3.7777777777777777,0.02081159551,50,1.8555523280973087,0.5389230930638341
1.079080625,0.0386151985,3.7777777777777777,0.02080930853,50,1.8556694685135702,0.5388890731715389
1.07884776,0.038611467499999996,3.7777777777777777,0.020804725849999997,50,1.8558988846276963,0.5388224586387451
1.07859169,0.038608815,3.7777777777777777,0.020799657500000002,50,1.8562235940663923,0.5387282023548251
1.078244835,0.0386053605,3.7777777777777777,0.020792789489999998,50,1.856670578931543,0.5385985060287158
1.0783260000000001,0.038601297,3.7777777777777777,0.02079449406,50,1.856322971293296,0.5386993618375052
1.07790374,0.038596337,3.7777777777777777,0.02078614806,50,1.8568296968053062,0.5385523517426019
1.0779745049999998,0.038592724999999994,3.7777777777777777,0.020787635599999996,50,1.8565230670100836,0.5386413009187613
1.07759955,0.0385889815,3.7777777777777777,0.02078021137,50,1.8570062071510105,0.5385011617888904
1.077682085,0.0385857335,3.7777777777777777,0.02078192703,50,1.8566966116423707,0.5385909543484512
1.0778688550000002,0.0385819715,3.7777777777777777,0.020785737670000005,50,1.8561752347950222,0.5387422379387743
1.0772478250000002,0.0385792935,3.7777777777777777,0.020773370630000003,50,1.8571513591677538,0.5384590733886819
1.07725219,0.038576234,3.7777777777777777,0.02077351912,50,1.8569908053210005,0.5385056281025254
1.077298265,0.038571951,3.7777777777777777,0.02077452628,50,1.8566946114739518,0.5385915345583634
1.0770773999999999,0.0385686025,3.7777777777777777,0.020770175949999997,50,1.8569222809111545,0.5385255001137258
1.07708468,0.0385658375,3.7777777777777777,0.02077037685,50,1.8567711976781007,0.5385693192841982
1.07659065,0.038563511,3.7777777777777777,0.02076054278,50,1.8575386688420679,0.5383468009435136
1.07636357,0.0385614605,3.7777777777777777,0.02075604219,50,1.8578426535757584,0.5382587153305566
1.075906755,0.0385590145,3.7777777777777777,0.02074695481,50,1.858538510982567,0.5380571853048786
1.07601961,0.0385575225,3.7777777777777777,0.020749241749999994,50,1.8582617603363751,0.5381373180810566
1.075852835,0.0385562745,3.7777777777777777,0.02074593121,50,1.8584981368016404,0.5380688741076372
1.0760799099999998,0.038554055,3.7777777777777777,0.020750517099999994,50,1.857980445219845,0.5382187969592303
1.07616553,0.0385525625,3.7777777777777777,0.020752259349999996,50,1.857752539122927,0.5382848247765631
1.0759180549999998,0.038550017,3.7777777777777777,0.020747360759999996,50,1.8580684765612572,0.5381932972947845
1.07578645,0.038547659,3.7777777777777777,0.020744775820000002,50,1.8581863373445697,0.5381591608455394
1.075728145,0.038545728,3.7777777777777777,0.020743648339999997,50,1.8581942466539136,0.5381568701984302
1.07571521,0.0385435455,3.7777777777777777,0.02074343329,50,1.8581082967871614,0.5381817635328852
1.0757341550000001,0.038540729999999995,3.7777777777777777,0.020743868500000002,50,1.8579335864956912,0.5382323713121159
1.07567469,0.038538291,3.7777777777777777,0.02074272798,50,1.857918159904443,0.5382368403414671
1.07540251,0.038535764,3.7777777777777777,0.020737334920000003,50,1.8582794823280018,0.5381321859870224
1.07518379,0.03853392,3.7777777777777777,0.020732997400000005,50,1.8585793099072105,0.5380453740496686
1.074934135,0.0385312305,3.7777777777777777,0.020728058089999998,50,1.8588924409946983,0.5379547401165918
1.07511771,0.038527706499999995,3.7777777777777777,0.02073180007,50,1.858386940348301,0.5381010694213009
1.07481466,0.0385249915,3.7777777777777777,0.020725793369999995,50,1.8587945374271582,0.5379830744414309
1.074551235,0.038522903,3.7777777777777777,0.020720566639999997,50,1.8591626218191108,0.5378765624179465
1.0742661500000001,0.038520972,3.7777777777777777,0.020714903560000004,50,1.8595776653473346,0.5377565124784496
1.0738625000000002,0.038518475999999996,3.7777777777777777,0.020706880480000005,50,1.8601776369551917,0.5375830674090015
1.073879905,0.038515390999999996,3.7777777777777777,0.020707290280000002,50,1.8599918424478663,0.5376367665591141
1.073496435,0.0385126255,3.7777777777777777,0.020699676190000002,50,1.8605424136347322,0.5374776692386242
1.073692845,0.0385118295,3.7777777777777777,0.02070362031,50,1.8601495257038936,0.5375911915584275
1.07355379,0.0385093715,3.7777777777777777,0.02070088837,50,1.8602762747036639,0.5375545630496722
1.0734707449999998,0.0385070515,3.7777777777777777,0.02069927387,50,1.8603092911297376,0.5375450226304654
1.0737570650000001,0.038505484,3.7777777777777777,0.02070503162,50,1.8597162615683074,0.5377164359237765
1.07326641,0.0385045435,3.7777777777777777,0.02069523733,50,1.860550951217335,0.537475202893913
1.07320134,0.038503508500000005,3.7777777777777777,0.02069395663,50,1.8606160817106152,0.5374563886820859
1.07287929,0.038502311,3.7777777777777777,0.020687539579999997,50,1.8611353395172574,0.5373064380473161
1.07287892,0.038500881,3.7777777777777777,0.02068756078,50,1.8610643086168617,0.5373269453236666
1.072881015,0.0384990125,3.7777777777777777,0.02068764005,50,1.8609668578412837,0.5373550828089422
1.0728058950000001,0.0384984795,3.7777777777777777,0.02068614831,50,1.8610752916911675,0.5373237743064632
1.0728023,0.038497113,3.7777777777777777,0.02068610374,50,1.8610132426997101,0.5373416894924042
1.07260527,0.0384955825,3.7777777777777777,0.02068219375,50,1.8612910683132924,0.5372614831844666
1.07265632,0.038493218499999995,3.7777777777777777,0.020683262030000003,50,1.861080638255589,0.5373222306677216
1.0725522399999998,0.0384917705,3.7777777777777777,0.020681209389999997,50,1.8611953379579418,0.5372891171633686
1.0723023550000002,0.03848992,3.7777777777777777,0.020676248700000004,50,1.8615523811144712,0.537186065858282
1.0721325199999998,0.038488284,3.7777777777777777,0.020672884719999996,50,1.8617761633800667,0.5371214970249127
1.0721558199999999,0.0384866845,3.7777777777777777,0.020673382709999997,50,1.8616539460367783,0.5371567589824475
1.072020535,0.038485662500000004,3.7777777777777777,0.02067069745,50,1.8618463451991554,0.5371012503682377
1.07214356,0.0384844025,3.7777777777777777,0.02067318315,50,1.861561532192008,0.537183425155165
1.07190137,0.038483606000000004,3.7777777777777777,0.020668355279999998,50,1.8619578325731203,0.5370690906668153
1.07188793,0.038481442500000004,3.7777777777777777,0.02066812975,50,1.8618734721268142,0.5370934249671123
1.072002895,0.0384807405,3.7777777777777777,0.02067044309,50,1.8616311383579538,0.5371633399310494
1.07180812,0.0384795365,3.7777777777777777,0.02066657167,50,1.861921614984533,0.5370795375874655
1.07165486,0.038478477,3.7777777777777777,0.02066352766,50,1.86214462666439,0.5370152165845857
1.07169878,0.038477166,3.7777777777777777,0.02066443228,50,1.861999665833549,0.5370570244180666
1.0715095350000001,0.038476301,3.7777777777777777,0.020660664680000003,50,1.8622973459922583,0.5369711781805638
1.07168274,0.038474212499999993,3.7777777777777777,0.02066417055,50,1.8618803211532724,0.5370914492401893
1.071505475,0.038473354,3.7777777777777777,0.02066064242,50,1.8621567140989221,0.537011730768261
1.071498855,0.038471855,3.7777777777777777,0.020660539999999998,50,1.8620933915570457,0.5370299924451264
1.0712897749999999,0.038470626,3.7777777777777777,0.020656382979999995,50,1.8624086335564258,0.536939091659179
1.0712793999999999,0.038469654,3.7777777777777777,0.020656194919999996,50,1.8623785333644598,0.5369477697927826
1.07126731,0.0384682185,3.7777777777777777,0.02065598183,50,1.862328250314887,0.5369622674364294
1.07129444,0.038466643999999994,3.7777777777777777,0.020656555919999996,50,1.8622002694435618,0.5369991705021109
0.00346048028,2.60915e-05,4.555555555555555,6.86877756e-05,50,0.3798565286484543,2.632572891554721
0.201572407,0.0062755725,4.555555555555555,0.0039059366900000003,50,1.606675427194392,0.6224032452816058
0.40271052949999997,0.012237096499999999,4.555555555555555,0.00780946866,50,1.5669563491147935,0.6381798705272939
0.6040741185,0.0179998065,4.555555555555555,0.01172148624,50,1.5356249311264814,0.6512006804073144
0.8053851685,0.023877096,4.555555555555555,0.01563016145,50,1.5276295178640014,0.6546089796682143
