vbias,vds,vgs,ids,Rbias,Rfet,Gfet
0.0001607,7.399999999999999e-07,-1.1,1.6490721649484536e-09,97000.0,448.73718429607396,0.0022284758985789918
0.5552086,0.00195771,-1.1,5.703617422680413e-06,97000.0,343.24006238833164,0.0029134128255361683
1.1113593799999997,0.00393814,-1.1,1.1416713814432986e-05,97000.0,344.94514481228487,0.002899011669070421
1.66653062,0.0059468099999999986,-1.1,1.7119420721649485e-05,97000.0,347.37215100272465,0.0028787569674580977
2.2227906000000006,0.00797548,-1.1,2.283314556701032e-05,97000.0,349.2939672544766,0.0028629180396678717
2.7790095000000004,0.010017649999999998,-1.1,2.8546307731958765e-05,97000.0,350.9262947090291,0.002849601227030169
3.3341205999999994,0.012094320000000002,-1.1,3.4247693608247415e-05,97000.0,353.14261270684483,0.002831717170394649
3.8901926,0.014198289999999997,-1.1,3.995870422680412e-05,97000.0,355.324084570186,0.002814332164422908
4.4453966000000005,0.01632028,-1.1,4.56605806185567e-05,97000.0,357.42602873007166,0.0027977816936079957
5.001615899999999,0.01847157,-1.1,5.1372621958762875e-05,97000.0,359.5605849128597,0.0027811724698421883
0.00017098,5.3799999999999985e-06,-1.1210526315789475,1.7072164948453607e-09,97000.0,3151.3285024154584,0.00031732648603073626
0.55521493,0.0022121700000000003,-1.1210526315789475,5.701059381443299e-06,97000.0,388.0278825371505,0.0025771343890583897
1.111367,0.0044605,-1.1210526315789475,1.1411407216494845e-05,97000.0,390.8808015853191,0.0025583246758199406
1.66653108,0.006740900000000001,-1.1210526315789475,1.7111238969072164e-05,97000.0,393.94575764992186,0.002538420532728888
2.2227498,0.009058799999999999,-1.1210526315789475,2.2821556701030927e-05,97000.0,396.9404944050457,0.00251926929626782
2.7789282,0.011412280000000002,-1.1210526315789475,2.853109195876289e-05,97000.0,399.9945048193255,0.00250003434535105
3.3341209999999997,0.013796719999999995,-1.1210526315789475,3.423014721649484e-05,97000.0,403.0575712321688,0.002481035145780653
3.8901961999999997,0.01621843,-1.1210526315789475,3.993791515463917e-05,97000.0,406.0910525049296,0.0024625019286477895
4.445371799999999,0.01867794,-1.1210526315789475,4.5636019175257724e-05,97000.0,409.2806589520967,0.0024433111561155954
5.0015575000000005,0.021183979999999998,-1.1210526315789475,5.13440569072165e-05,97000.0,412.5887449501979,0.002423720986670895
0.00016352,1.0120000000000001e-05,-1.1421052631578947,1.5814432989690723e-09,97000.0,6399.217731421121,0.0001562691006886435
0.5552098499999999,0.0025339,-1.1421052631578947,5.697690206185566e-06,97000.0,444.72407384471865,0.0022485852662636908
1.11137166,0.00514768,-1.1421052631578947,1.1404370927835052e-05,97000.0,451.3778122943963,0.0022154389798579267
1.6665329500000001,0.00780655,-1.1421052631578947,1.7100272164948455e-05,97000.0,456.5161258662067,0.0021905031242928637
2.2226722,0.010500920000000002,-1.1421052631578947,2.280588948453608e-05,97000.0,460.447728080079,0.002171799183741622
2.7789329999999994,0.01326121,-1.1421052631578947,2.8512080309278346e-05,97000.0,465.10846827562295,0.0021500361060022683
3.3340196,0.01607216,-1.1421052631578947,3.420564371134021e-05,97000.0,469.8686607283929,0.002128254305043019
3.8902004999999997,0.018954020000000002,-1.1421052631578947,3.9909757525773196e-05,97000.0,474.9219533032679,0.0021056091280780113
4.445379600000001,0.021892039999999995,-1.1421052631578947,4.560296453608248e-05,97000.0,480.0573871174172,0.002083084287077974
5.001572299999999,0.024884899999999998,-1.1421052631578947,5.130605567010309e-05,97000.0,485.0285151524687,0.0020617344522221547
0.00017775999999999995,7.84e-06,-1.1631578947368422,1.751752577319587e-09,97000.0,4475.517890772129,0.00022343782873974325
0.5552056000000001,0.0029886699999999997,-1.1631578947368422,5.692958041237114e-06,97000.0,524.9766427842043,0.0019048466512653168
1.1113701800000002,0.0060707,-1.1631578947368422,1.1394840000000003e-05,97000.0,532.7586872654639,0.001877022419160888
1.6665287799999997,0.00922798,-1.1631578947368422,1.7085575257731956e-05,97000.0,540.1035587504696,0.0018514967801980448
2.2227572,0.012468259999999998,-1.1631578947368422,2.2786483917525777e-05,97000.0,547.1778816393116,0.0018275592518543712
2.7789684999999995,0.0158044,-1.1631578947368422,2.8486227835051543e-05,97000.0,554.8084531063502,0.001802423871520054
3.3340876,0.019230100000000003,-1.1631578947368422,3.4173788659793816e-05,97000.0,562.7148980008946,0.0017770988533493746
3.8902251999999997,0.02275215,-1.1631578947368422,3.987085618556701e-05,97000.0,570.6461354656369,0.0017523994956769806
4.445359600000001,0.0264096,-1.1631578947368422,4.5556185567010314e-05,97000.0,579.7149096504825,0.0017249858220878135
5.0014976,0.030171939999999998,-1.1631578947368422,5.1250780000000006e-05,97000.0,588.7118205810721,0.0016986239532492775
0.00018677999999999997,6.6799999999999996e-06,-1.1842105263157896,1.8567010309278347e-09,97000.0,3597.779011660189,0.00027794925612692137
0.55521292,0.0036064499999999998,-1.1842105263157896,5.686664639175257e-06,97000.0,634.1942472139604,0.0015768039593437473
1.1113642599999998,0.0073599200000000016,-1.1842105263157896,1.138148804123711e-05,97000.0,646.6570955690269,0.0015464146405446129
1.6665236799999996,0.01122774,-1.1842105263157896,1.706490659793814e-05,97000.0,657.9432436715819,0.001519887938083545
2.2226964000000002,0.015253,-1.1842105263157896,2.275714845360825e-05,97000.0,670.2509337272247,0.0014919785257725203
2.7789694999999996,0.019430199999999998,-1.1842105263157896,2.8448858762886593e-05,97000.0,682.9869753983935,0.0014641567643609741
3.3340077999999997,0.023817639999999998,-1.1842105263157896,3.412567175257732e-05,97000.0,697.9390815420707,0.001432789804219785
3.8901528000000005,0.02838736,-1.1842105263157896,3.981201484536083e-05,97000.0,713.0349998678323,0.0014024557001905368
4.445402,0.033162939999999995,-1.1842105263157896,4.548700061855669e-05,97000.0,729.0641182982502,0.0013716214732034224
5.001519599999999,0.03818134999999999,-1.1842105263157896,5.11684355670103e-05,97000.0,746.1895126732496,0.0013401421261168165
0.00016668000000000002,1.032e-05,-1.2052631578947368,1.6119587628865983e-09,97000.0,6402.148887183421,0.00015619755454327505
0.55521913,0.004467320000000001,-1.2052631578947368,5.6778537113402055e-06,97000.0,786.7973053052702,0.0012709753747974634
1.1113701399999998,0.00919054,-1.2052631578947368,1.136267628865979e-05,97000.0,808.8358557897463,0.0012363447946105222
1.66652129,0.014125799999999999,-1.2052631578947368,1.7035005051546392e-05,97000.0,829.2219437127609,0.0012059497551675936
2.2227352000000007,0.019406819999999998,-1.2052631578947368,2.2714725567010316e-05,97000.0,854.3717573319685,0.001170450674917906
2.7789378,0.0250002,-1.2052631578947368,2.8391109278350515e-05,97000.0,880.5643962303286,0.001135635286051732
3.334097,0.03096636,-1.2052631578947368,3.405289319587629e-05,97000.0,909.3606179621161,0.0010996737490578902
3.890185199999999,0.03739997999999999,-1.2052631578947368,3.9719435257731946e-05,97000.0,941.6040222454966,0.0010620175534246797
4.445411399999999,0.04431144,-1.2052631578947368,4.5372164536082464e-05,97000.0,976.6216898195607,0.0010239379387373207
5.001551500000001,0.0518555,-1.2052631578947368,5.1027793814432994e-05,97000.0,1016.2206931496398,0.0009840382180180114
0.00016777999999999997,3.2279999999999996e-05,-1.2263157894736842,1.3969072164948452e-09,97000.0,23108.191881918818,4.327469691743635e-05
0.55521163,0.005760400000000001,-1.2263157894736842,5.664445670103093e-06,97000.0,1016.9397564184178,0.0009833424189471377
1.1113627400000001,0.01200602,-1.2263157894736842,1.1333574432989692e-05,97000.0,1059.332170180394,0.0009439909672805553
1.66652445,0.01875831,-1.2263157894736842,1.6987279793814435e-05,97000.0,1104.2562568982028,0.0009055868995562198
2.2226998,0.026163239999999997,-1.2263157894736842,2.2644706804123715e-05,97000.0,1155.379940500512,0.0008655161518269036
2.7789376999999997,0.03433259999999999,-1.2263157894736842,2.829489793814433e-05,97000.0,1213.3848326668194,0.0008241408439251422
3.3341002000000004,0.043448339999999995,-1.2263157894736842,3.392424597938145e-05,97000.0,1280.7459309900983,0.0007807949850185636
3.8901719999999997,0.05376181,-1.2263157894736842,3.9550620515463914e-05,97000.0,1359.3164734034867,0.0007356638572150736
4.445386000000001,0.06555278,-1.2263157894736842,4.515291979381444e-05,97000.0,1451.7949293055499,0.0006888025159850496
5.0014943999999995,0.0793668,-1.2263157894736842,5.0743583505154634e-05,97000.0,1564.075583899938,0.0006393552909422408
0.00016530000000000003,1.6780000000000002e-05,-1.2473684210526317,1.531134020618557e-09,97000.0,10959.19741448963,9.124755784377573e-05
0.5552087000000001,0.00775937,-1.2473684210526317,5.643807525773196e-06,97000.0,1374.8466730245152,0.0007273538348826253
1.11136114,0.016459739999999997,-1.2473684210526317,1.1287643298969074e-05,97000.0,1458.2087300281098,0.00068577287970339
1.6665243399999998,0.02638674,-1.2473684210526317,1.6908635051546392e-05,97000.0,1560.5482003461173,0.0006408004570305537
2.2227103999999995,0.03797662,-1.2473684210526317,2.252302865979381e-05,97000.0,1686.1240365862795,0.0005930761784433109
2.778962000000001,0.05185057999999999,-1.2473684210526317,2.8114550721649493e-05,97000.0,1844.2613760166785,0.0005422224924320904
3.334102599999999,0.06893345999999999,-1.2473684210526317,3.366153752577319e-05,97000.0,2047.8405048260379,0.000488319279574436
3.8902189999999996,0.09048725000000002,-1.2473684210526317,3.917249226804123e-05,97000.0,2309.969184008846,0.00043290620798003276
4.445369000000001,0.11821366000000003,-1.2473684210526317,4.460984886597939e-05,97000.0,2649.9453148820858,0.0003773662778563779
5.001547299999999,0.15363011,-1.2473684210526317,4.997852773195875e-05,97000.0,3073.922281663397,0.00032531726841801225
0.00018526000000000003,2.6639999999999996e-05,-1.2684210526315791,1.635257731958763e-09,97000.0,16291.009960912868,6.138354849695058e-05
0.55521256,0.01093174,-1.2684210526315791,5.611142474226804e-06,97000.0,1948.220001579332,0.0005132890531815433
1.11135392,0.024199519999999995,-1.2684210526315791,1.1207777319587628e-05,97000.0,2159.1720918390247,0.00046314048045529953
1.66652083,0.04098309,-1.2684210526315791,1.6758121030927835e-05,97000.0,2445.5659393057217,0.0004089033069719202
2.2227278,0.06358208000000001,-1.2684210526315791,2.2259234226804122e-05,97000.0,2856.4360908443,0.0003500866002937324
2.7789161000000004,0.09585459999999998,-1.2684210526315791,2.7660427835051552e-05,97000.0,3465.4055451207496,0.0002885665146487655
3.3340148000000007,0.14214858,-1.2684210526315791,3.290583731958763e-05,97000.0,4319.8590760486195,0.00023148903295120942
3.8900580999999996,0.20400072000000002,-1.2684210526315791,3.800059154639175e-05,97000.0,5368.3564307401,0.00018627675209377566
4.445365000000001,0.27900766000000005,-1.2684210526315791,4.29521375257732e-05,97000.0,6495.780561155612,0.0001539460870922798
5.0015141,0.36989181000000004,-1.2684210526315791,4.7748683402061847e-05,97000.0,7746.63893631102,0.00012908824178091923
0.00017962000000000005,7.162000000000001e-05,-1.2894736842105263,1.1134020618556705e-09,97000.0,64325.37037037036,1.5545965677962444e-05
0.55522059,0.016505159999999998,-1.2894736842105263,5.553767319587629e-06,97000.0,2971.88539782497,0.0003364867301854468
1.1113634600000002,0.03989272,-1.2894736842105263,1.1046090103092785e-05,97000.0,3611.4787791591953,0.0002768948846579723
1.6665309799999999,0.07719905000000002,-1.2894736842105263,1.6384865257731957e-05,97000.0,4711.607253747178,0.00021224179906011737
2.2227376000000003,0.14099932,-1.2894736842105263,2.14612193814433e-05,97000.0,6569.958467593727,0.00015220796370821717
2.7789482000000003,0.23399347,-1.2894736842105263,2.623664670103093e-05,97000.0,8918.573805043676,0.00011212555077298066
3.3341086000000004,0.35018474,-1.2894736842105263,3.076210164948454e-05,97000.0,11383.641598683418,8.784535171202646e-05
3.8902276999999996,0.48772381000000004,-1.2894736842105263,3.507735969072165e-05,97000.0,13904.233793543144,7.192053980452922e-05
4.4453884,0.64732526,-1.2894736842105263,3.915529010309278e-05,97000.0,16532.255495889414,6.0487814276076266e-05
5.001508000000001,0.83023876,-1.2894736842105263,4.30027756701031e-05,97000.0,19306.63188742043,5.179567341580524e-05
0.00016481999999999998,5.000000000000001e-05,-1.3105263157894738,1.1837113402061853e-09,97000.0,42240.02786970913,2.36742268041237e-05
0.5552093,0.02718705,-1.3105263157894738,5.443528350515464e-06,97000.0,4994.380161063289,0.0002002250465024879
1.1113716,0.08045958000000002,-1.3105263157894738,1.0627958969072164e-05,97000.0,7570.55801910235,0.00013209065929839755
1.6665305,0.19087555999999997,-1.3105263157894738,1.5212937525773194e-05,97000.0,12546.923280045401,7.97008141103722e-05
2.2227051999999996,0.3460356399999999,-1.3105263157894738,1.934710886597938e-05,97000.0,17885.65115320568,5.591074048320394e-05
2.7789191999999994,0.5342867899999999,-1.3105263157894738,2.3140540309278345e-05,97000.0,23088.777654244066,4.3311084500663674e-05
3.334057,0.75251858,-1.3105263157894738,2.6613798144329898e-05,97000.0,28275.504906101687,3.536630038334721e-05
3.8901399999999997,1.0002752000000001,-1.3105263157894738,2.97924206185567e-05,97000.0,33574.821354964435,2.9784224000111863e-05
4.445399799999999,1.27473222,-1.3105263157894738,3.268729463917525e-05,97000.0,38997.78902082193,2.5642479358665025e-05
5.001504000000001,1.57506815,-1.3105263157894738,3.532408092783506e-05,97000.0,44589.07659105888,2.2427017477202537e-05
0.00016552,6.364000000000001e-05,-1.331578947368421,1.0503092783505154e-09,97000.0,60591.67648213586,1.6503917007393388e-05
0.55523685,0.05196073000000001,-1.331578947368421,5.188413608247423e-06,97000.0,10014.762492605452,9.985259268388689e-05
1.11136466,0.2014835,-1.331578947368421,9.380218144329896e-06,97000.0,21479.617733814823,4.655576334702294e-05
1.66652477,0.42503582000000006,-1.331578947368421,1.2798855154639174e-05,97000.0,33208.89367561428,3.0112415359814078e-05
2.2227478000000005,0.6913957999999999,-1.331578947368421,1.578713402061856e-05,97000.0,43794.89013629784,2.2833714090566595e-05
2.778952,0.9938933000000001,-1.331578947368421,1.8402667010309278e-05,97000.0,54008.11194612256,1.8515737061824722e-05
3.3341188,1.3261061999999997,-1.331578947368421,2.0701160824742274e-05,97000.0,64059.50908873776,1.561048491044102e-05
3.890215,1.6842680499999996,-1.331578947368421,2.2741721134020623e-05,97000.0,74060.71159145505,1.3502435751851156e-05
4.4453682,2.0617044,-1.331578947368421,2.457385360824742e-05,97000.0,83898.29421414212,1.1919193463547646e-05
5.001525300000001,2.4567351000000004,-1.331578947368421,2.623495051546392e-05,97000.0,93643.59572745918,1.0678786864511327e-05
0.00017910000000000002,9.086000000000002e-05,-1.3526315789473684,9.096907216494845e-10,97000.0,99880.09972801454,1.0012004420531414e-05
0.55520777,0.12062600999999999,-1.3526315789473684,4.4802243298969075e-06,97000.0,26924.100473061728,3.7141445115335475e-05
1.1113589000000001,0.40138271999999997,-1.3526315789473684,7.319342061855672e-06,97000.0,54838.63393839493,1.823531930287301e-05
1.6665248400000003,0.7348824099999999,-1.3526315789473684,9.604561134020624e-06,97000.0,76513.89790179474,1.306952105986674e-05
2.2227008,1.1056650399999999,-1.3526315789473684,1.151583257731959e-05,97000.0,96012.60113642196,1.0415299535309167e-05
2.7789387999999997,1.5027902500000003,-1.3526315789473684,1.3156170618556695e-05,97000.0,114227.026508787,8.75449559148836e-06
3.3340354000000003,1.92069632,-1.3526315789473684,1.4570505979381446e-05,97000.0,131820.83880394785,7.586053988681276e-06
3.8902167,2.3536123999999994,-1.3526315789473684,1.5841281443298974e-05,97000.0,148574.62184636595,6.730624568131515e-06
4.4453222,2.7987391999999995,-1.3526315789473684,1.6975082474226805e-05,97000.0,164873.37862713262,6.065260555262459e-06
5.0014978999999995,3.2543094999999993,-1.3526315789473684,1.8012251546391755e-05,97000.0,180671.99936766972,5.534891978280418e-06
0.00016212000000000003,0.00012016000000000002,-1.3736842105263158,4.32577319587629e-10,97000.0,277776.9304099142,3.600010981921013e-06
0.55520791,0.23605860000000006,-1.3736842105263158,3.290199072164948e-06,97000.0,71745.99312152676,1.3938060600905653e-05
1.11135604,0.61833006,-1.3736842105263158,5.08274206185567e-06,97000.0,121652.85046439136,8.220111540195328e-06
1.66652223,1.037079,-1.3736842105263158,6.489105463917525e-06,97000.0,159818.48434528403,6.257098508327259e-06
2.2227158,1.4807346600000002,-1.3736842105263158,7.649290103092782e-06,97000.0,193578.0497331779,5.1658749604016035e-06
2.7789668000000005,1.94129401,-1.3736842105263158,8.635801958762892e-06,97000.0,224796.03159844773,4.448477105620334e-06
3.3340642000000003,2.4131056,-1.3736842105263158,9.494418556701032e-06,97000.0,254160.4402195712,3.9345226154632565e-06
3.8901721,2.894707,-1.3736842105263158,1.0262526804123713e-05,97000.0,282065.71882831445,3.545273080876135e-06
4.445312200000001,3.382761800000001,-1.3736842105263158,1.0954127835051547e-05,97000.0,308811.6051718583,3.2382202716879277e-06
5.0015220000000005,3.878658,-1.3736842105263158,1.1575917525773198e-05,97000.0,335062.6843500192,2.9845161717720916e-06
0.00015713999999999998,0.00014547999999999997,-1.3947368421052633,1.2020618556701037e-10,97000.0,1210253.8593481982,8.262729280107946e-07
0.55520668,0.34850554999999994,-1.3947368421052633,2.1309394845360828e-06,97000.0,163545.49367969102,6.114506596913831e-06
1.11135294,0.8020159599999998,-1.3947368421052633,3.189041030927837e-06,97000.0,251491.26405772736,3.976281258701932e-06
1.6665178999999999,1.2767441499999996,-1.3947368421052633,4.0182860824742294e-06,97000.0,317733.5121977811,3.1472915560053518e-06
2.2227536,1.7661968400000003,-1.3947368421052633,4.70677072164948e-06,97000.0,375245.9901809365,2.664918549876626e-06
2.7789676999999995,2.265229,-1.3947368421052633,5.296275257731952e-06,97000.0,427702.2793883356,2.33807498391198e-06
3.3340385999999995,2.7695870000000005,-1.3947368421052633,5.819088659793805e-06,97000.0,475948.582659701,2.1010672926302023e-06
3.890153,3.2800091999999994,-1.3947368421052633,6.290142268041245e-06,97000.0,521452.3074724344,1.9177209222587687e-06
4.4453812,3.7929079999999997,-1.3947368421052633,6.726527835051548e-06,97000.0,563873.0847489213,1.7734487193075994e-06
5.001543000000001,4.3091542,-1.3947368421052633,7.138028865979389e-06,97000.0,603689.6573139247,1.656480259160693e-06
0.0001763,0.0001664,-1.4157894736842105,1.0206185567010306e-10,97000.0,1630383.838383839,6.133524980174462e-07
0.5552129499999999,0.43412179,-1.4157894736842105,1.2483624742268033e-06,97000.0,347752.99559439375,2.875604272770559e-06
1.11135836,0.93246114,-1.4157894736842105,1.8443012371134029e-06,97000.0,505590.4758050458,1.977885359505065e-06
1.6665269600000001,1.44191919,-1.4157894736842105,2.3155440206185586e-06,97000.0,622712.9249802884,1.6058764157362792e-06
2.2227354000000004,1.9595856800000004,-1.4157894736842105,2.7128837113402055e-06,97000.0,722325.7199741657,1.384416991320433e-06
2.778924000000001,2.482297499999999,-1.4157894736842105,3.0580051546391927e-06,97000.0,811737.513337475,1.2319253250825873e-06
3.3340288,3.0070094000000003,-1.4157894736842105,3.371334020618554e-06,97000.0,891934.5818627282,1.1211584575088304e-06
3.8902079,3.5354754,-1.4157894736842105,3.657036082474226e-06,97000.0,966759.7803979057,1.0343831221323802e-06
4.4453992,4.0647162,-1.4157894736842105,3.924567010309273e-06,97000.0,1035710.7393815867,9.65520547365465e-07
5.001537900000001,4.5968279999999995,-1.4157894736842105,4.17226701030929e-06,97000.0,1101757.866560711,9.076404447391311e-07
0.00018262,0.00018618,-1.436842105263158,-3.670103092783505e-11,97000.0,-5072882.02247191,-1.9712660289953298e-07
0.55521014,0.4864868500000001,-1.436842105263158,7.084875257731952e-07,97000.0,686655.4911733716,1.4563343814394882e-06
1.11136482,1.0092428999999998,-1.436842105263158,1.052803298969073e-06,97000.0,958624.3707521353,1.0431614618929429e-06
1.66652085,1.5372969099999998,-1.436842105263158,1.3322055670103108e-06,97000.0,1153948.720879427,8.665896342758608e-07
