vbias,vds,vgs,ids,Rbias,Rfet,Gfet
7.01149201e-05,3.1741e-05,0.0,3.9560742371134023e-10,97000.0,80233.58030601621,1.2463609328985862e-05
0.151012554,0.0123303445,0.0,1.4297134999999999e-06,97000.0,8624.346416257524,0.00011595081548613665
0.30301480999999997,0.0248395755,0.0,2.867785922680412e-06,97000.0,8661.586383959713,0.00011545229195565005
0.45401356800000003,0.0373938865,0.0,4.295048262886598e-06,97000.0,8706.278535475285,0.00011485963789526393
0.6060236565,0.0501665175,0.0,5.730485969072165e-06,97000.0,8754.32167023045,0.0001142292958460225
0.7570381815,0.0629893545,0.0,7.155142546391753e-06,97000.0,8803.36821965409,0.00011359288570565924
0.908939575,0.0760276405,0.0,8.586720974226804e-06,97000.0,8854.094680402251,0.00011294209471391929
1.059947475,0.089131029,0.0,1.0008416969072164e-05,97000.0,8905.607078065508,0.00011228880762806143
1.2119198949999999,0.10247049,0.0,1.1437622731958762e-05,97000.0,8959.07238780303,0.00011161869853417079
1.36295467,0.11587918999999999,0.0,1.285644824742268e-05,97000.0,9013.312834921588,0.0001109469978813511
1.514995215,0.129552845,0.0,1.4282911030927833e-05,97000.0,9070.47903046303,0.00011024776052527316
1.66600722,0.14328959000000002,0.0,1.5698119896907216e-05,97000.0,9127.818550311264,0.00010955520144141115
1.8180419799999998,0.15728985,0.0,1.7121155979381444e-05,97000.0,9186.87092094833,0.00010885099057174665
1.96894584,0.17136306,0.0,1.85317812371134e-05,97000.0,9246.982673031614,0.00010814338421077098
2.1209727650000003,0.18572646999999998,0.0,1.9950992731958765e-05,97000.0,9309.134261900239,0.00010742137473435405
2.271989605,0.20019199999999998,0.0,2.1358738195876288e-05,97000.0,9372.838327998743,0.00010669126736271324
2.42390153,0.214937255,0.0,2.277282757731959e-05,97000.0,9438.32092304888,0.0001059510487249853
2.5759084000000003,0.22989614,0.0,2.4185693402061856e-05,97000.0,9505.459950153883,0.00010520269458226596
2.726965145,0.244971945,0.0,2.5587558762886594e-05,97000.0,9573.869366362487,0.00010445097606130611
2.8789903050000003,0.26037643499999996,0.0,2.699601927835052e-05,97000.0,9644.993667966783,0.00010368073162362225
3.0300091900000004,0.27591538000000004,0.0,2.8392719690721655e-05,97000.0,9717.82143470269,0.00010290372247723796
3.1819936149999997,0.29182127,0.0,2.9795591185567008e-05,97000.0,9794.10907414243,0.00010210219147345567
3.3329906,0.30788133500000003,0.0,3.118669345360825e-05,97000.0,9872.201920283365,0.00010129452457261902
3.484972125,0.32432415000000003,0.0,3.258399974226804e-05,97000.0,9953.478779932779,0.00010046738653988003
3.636031725,0.34092477,0.0,3.3970174793814434e-05,97000.0,10036.00281921653,9.964126336087119e-05
3.7879387400000004,0.35792257000000005,0.0,3.536099144329897e-05,97000.0,10121.9608215433,9.879508700247366e-05
3.938904745,0.37516218,0.0,3.673961407216495e-05,97000.0,10211.380535002252,9.792995144703805e-05
4.090941905,0.39287945,0.0,3.812435520618557e-05,97000.0,10305.209042230737,9.703830324081743e-05
4.2419697450000005,0.410811325,0.0,3.949647855670104e-05,97000.0,10401.213981905763,9.614262351871882e-05
4.394062515,0.42920218,0.0,4.087484881443299e-05,97000.0,10500.39798186233,9.523448556210265e-05
4.544961165,0.44786288500000004,0.0,4.2238126597938144e-05,97000.0,10603.284782565675,9.431039725012744e-05
4.696934565,0.467099445,0.0,4.360654762886598e-05,97000.0,10711.681396460672,9.335602535101703e-05
4.847952635,0.486669145,0.0,4.4961685463917525e-05,97000.0,10824.085885093427,9.238655445049331e-05
4.999969365,0.50684386,0.0,4.632088149484536e-05,97000.0,10942.016724280218,9.13908308859564e-05
5.150989285,0.52744312,0.0,4.7665424381443295e-05,97000.0,11065.528668729105,9.03707387091205e-05
5.302924475,0.548797325,0.0,4.9011620103092785e-05,97000.0,11197.290027255582,8.930732325106137e-05
5.453972325,0.570678205,0.0,5.034323835051546e-05,97000.0,11335.74683906199,8.821650784878925e-05
5.605956465,0.5932899899999999,0.0,5.167697396907217e-05,97000.0,11480.741700453946,8.71023864216421e-05
5.75695725,0.6164760250000001,0.0,5.299465180412372e-05,97000.0,11632.796971260215,8.596384880356654e-05
5.90902646,0.640629075,0.0,5.4313375103092786e-05,97000.0,11795.051840987882,8.478131452758804e-05
6.059958185,0.6654597250000001,0.0,5.5613386185567016e-05,97000.0,11965.81921445205,8.35713779456255e-05
6.211959459999999,0.69144411,0.0,5.691252938144329e-05,97000.0,12149.242311227339,8.230965967942556e-05
6.362951055,0.71834849,0.0,5.8191779020618554e-05,97000.0,12344.5012695947,8.10077279074096e-05
6.5149387700000005,0.74661515,0.0,5.946725381443299e-05,97000.0,12555.063536813144,7.964913893648285e-05
6.666074245,0.7760162150000001,0.0,6.072224773195876e-05,97000.0,12779.767613766619,7.824868418755755e-05
6.817974115,0.807063965,0.0,6.196814587628866e-05,97000.0,13023.852070888133,7.678219888839748e-05
6.968918524999999,0.839605335,0.0,6.318879577319587e-05,97000.0,13287.250132343133,7.526011703248153e-05
7.120916505,0.87429323,0.0,6.439817809278351e-05,97000.0,13576.365914270698,7.365741364917523e-05
7.271924125,0.910942455,0.0,6.55771306185567e-05,97000.0,13891.160628827909,7.198822522610026e-05
7.423968725,0.9503795749999999,0.0,6.673803247422681e-05,97000.0,14240.4494074203,7.022250291335104e-05
7.575926075,0.99275132,0.0,6.786778097938145e-05,97000.0,14627.726229941165,6.836332484491831e-05
7.726940255000001,1.03816355,0.0,6.895646087628867e-05,97000.0,15055.348502622795,6.642157767558751e-05
7.878909105,1.0877935,0.0,7.001150108247422e-05,97000.0,15537.354337233375,6.436102172192996e-05
8.029979845,1.1417003000000001,0.0,7.1013191185567e-05,97000.0,16077.298892491452,6.21995029567453e-05
8.181990415,1.20118205,0.0,7.196709654639176e-05,97000.0,16690.71155629696,5.991356309927522e-05
8.332940545,1.2660710000000002,0.0,7.285432520618557e-05,97000.0,17378.117173096907,5.7543633181855954e-05
8.484953165,1.3378565,0.0,7.368140891752578e-05,97000.0,18157.31430295409,5.5074224266597936e-05
8.635921880000001,1.4159466,0.0,7.443273484536084e-05,97000.0,19023.17042282172,5.2567473127419384e-05
8.78795172,1.5016453,0.0,7.511656103092784e-05,97000.0,19990.86858331714,5.002283896931442e-05
8.938961615,1.5935719000000002,0.0,7.572566716494845e-05,97000.0,21044.012679727508,4.751945435593364e-05
9.09091483,1.69237065,0.0,7.627365134020618e-05,97000.0,22188.142566447445,4.506911730016482e-05
9.241993794999999,1.7963585,0.0,7.675912675257731e-05,97000.0,23402.539554551204,4.273040529080209e-05
9.393991905,1.90610145,0.0,7.719474695876289e-05,97000.0,24692.113454536375,4.0498760944105515e-05
9.544940775,2.0195719,0.0,7.758112242268042e-05,97000.0,26031.743766181822,3.841463748959887e-05
9.69691817,2.1375413,0.0,7.793172030927834e-05,97000.0,27428.38591932777,3.6458579915755704e-05
9.84790557,2.25805825,0.0,7.824584865979381e-05,97000.0,28858.505450146524,3.465182913673455e-05
9.99990323,2.38239855,0.0,7.853097608247423e-05,97000.0,30337.055119472534,3.296298853207169e-05
10.15188985,2.50926865,0.0,7.878990927835051e-05,97000.0,31847.589024823057,3.1399551131502207e-05
10.3029245,2.63747365,0.0,7.902526649484535e-05,97000.0,33375.06808878698,2.996248568960882e-05
10.454901750000001,2.7681738,0.0,7.924461804123713e-05,97000.0,34932.01012792445,2.862703853393784e-05
10.6058926,2.8995354000000004,0.0,7.944698144329897e-05,97000.0,36496.48290375121,2.73999004955411e-05
10.757921849999999,3.03345395,0.0,7.963368969072164e-05,97000.0,38092.59575666048,2.6251820862723704e-05
10.9089605,3.1675819,0.0,7.98080268041237e-05,97000.0,39690.01649137791,2.519525282175773e-05
11.06100925,3.3036136000000003,0.0,7.997315103092782e-05,97000.0,41309.0338121403,2.4207779938588405e-05
11.211949449999999,3.4398514000000002,0.0,8.012472216494844e-05,97000.0,42931.211579349554,2.3293076603526662e-05
11.36393185,3.577832,0.0,8.02690706185567e-05,97000.0,44572.983995318275,2.2435114510283516e-05
11.51490505,3.7156588,0.0,8.040460051546392e-05,97000.0,46212.017424119666,2.163939286230047e-05
11.6668998,3.85510235,0.0,8.05339943298969e-05,97000.0,47869.25548741667,2.0890235075054984e-05
11.8180509,3.9942788,0.0,8.06574443298969e-05,97000.0,49521.514513440394,2.01932434786217e-05
11.96997025,4.13463735,0.0,8.077662783505154e-05,97000.0,51186.06038423716,1.9536568989551537e-05
12.1210413,4.2746982,0.0,8.08901350515464e-05,97000.0,52845.72954756464,1.892300491565613e-05
12.27303625,4.41606115,0.0,8.099974329896907e-05,97000.0,54519.44623701302,1.8342079184969862e-05
12.42405245,4.55688785,0.0,8.110478969072164e-05,97000.0,56185.18792018156,1.7798285224579677e-05
12.5760679,4.69893315,0.0,8.120757474226804e-05,97000.0,57863.23707995474,1.7282130251686605e-05
12.727091900000001,4.8405085,0.0,8.130498350515466e-05,97000.0,59535.20056606514,1.6796785607370518e-05
12.879008500000001,4.98367715,0.0,8.139516855670104e-05,97000.0,61228.169169872766,1.63323518171118e-05
13.030023,5.1259654,0.0,8.148512989690722e-05,97000.0,62906.75865013939,1.589654309740507e-05
13.182000899999998,5.2694065000000005,0.0,8.157313814432988e-05,97000.0,64597.32480411231,1.5480517235542538e-05
13.3330178,5.41195935,0.0,8.166039639175258e-05,97000.0,66273.97844160587,1.5088878372996756e-05
13.48500285,5.555608250000001,0.0,8.174633608247423e-05,97000.0,67961.55664267232,1.4714200930649531e-05
13.6360863,5.69859755,0.0,8.182978092783506e-05,97000.0,69639.65301368143,1.4359635017186828e-05
13.7880845,5.8426238999999995,0.0,8.191196494845362e-05,97000.0,71328.08868248618,1.4019722362833182e-05
13.939078599999998,5.9859162,0.0,8.199136494845359e-05,97000.0,73006.66605273899,1.3697379349957086e-05
14.09110345,6.1303447,0.0,8.206967783505155e-05,97000.0,74696.82910564273,1.3387449132354914e-05
14.242035699999999,6.27402345,0.0,8.2144456185567e-05,97000.0,76377.92909392176,1.3092787561316337e-05
14.3941523,6.4188364,0.0,8.221975154639175e-05,97000.0,78069.27507410709,1.2809136488724305e-05
14.54503055,6.5627114,0.0,8.229195e-05,97000.0,79749.12977514812,1.2539321780933411e-05
14.69706285,6.7077772,0.0,8.236376958762886e-05,97000.0,81440.87180059709,1.2278846946143182e-05
14.848089900000002,6.851971900000001,0.0,8.243420618556702e-05,97000.0,83120.49350697425,1.2030727415208317e-05
15.0000296,6.997029250000001,0.0,8.250515824742266e-05,97000.0,84807.17325596522,1.1791455387645071e-05
0.002879122025,9.88795e-05,-0.08333333333333333,2.866229407216495e-08,97000.0,3449.8110915701495,0.00028987094465652587
0.15132453299999998,0.0132459715,-0.08333333333333333,1.4234903247422677e-06,97000.0,9305.276804321287,0.00010746590574668439
0.3031854805,0.026667510999999998,-0.08333333333333333,2.8507007164948457e-06,97000.0,9354.721400845523,0.00010689789221404448
0.4541308315,0.040158212,-0.08333333333333333,4.267758963917525e-06,97000.0,9409.671994019403,0.00010627363000916288
0.606116897,0.0539040605,-0.08333333333333333,5.6929158402061865e-06,97000.0,9468.62065293551,0.00010561200376001704
0.7571101285,0.06772965950000001,-0.08333333333333333,7.107015144329897e-06,97000.0,9529.972586879308,0.00010493209617169117
0.9090004039999999,0.08181058399999999,-0.08333333333333333,8.527730103092783e-06,97000.0,9593.477163439946,0.00010423749209628897
1.06000372,0.095978671,-0.08333333333333333,9.93840256701031e-06,97000.0,9657.353921101276,0.00010354803273958972
1.211971475,0.11043444,-0.08333333333333333,1.1356051907216495e-05,97000.0,9724.721311798654,0.0001028307103039278
1.363001235,0.12500058,-0.08333333333333333,1.2762893350515464e-05,97000.0,9794.062879554776,0.00010210267304772078
1.5150363599999999,0.13985720000000001,-0.08333333333333333,1.4177104742268039e-05,97000.0,9865.004353323682,0.00010136842967160816
1.66604813,0.154829485,-0.08333333333333333,1.5579573659793816e-05,97000.0,9937.979586666625,0.00010062407467023364
1.818081395,0.17013835500000002,-0.08333333333333333,1.6989103505154642e-05,97000.0,10014.557563227427,9.985463598231358e-05
1.9689840950000002,0.18556243,-0.08333333333333333,1.8385790360824745e-05,97000.0,10092.708899552366,9.908142699373328e-05
2.121007855,0.20134447500000002,-0.08333333333333333,1.9790344123711343e-05,97000.0,10173.874377392143,9.829097184668883e-05
2.272026285,0.21727741,-0.08333333333333333,2.1182978092783505e-05,97000.0,10257.170122553298,9.749277705760348e-05
2.42393578,0.23357185,-0.08333333333333333,2.2581071443298966e-05,97000.0,10343.700943797045,9.667719566077404e-05
2.5759377800000003,0.25015679999999996,-0.08333333333333333,2.397712350515464e-05,97000.0,10433.14474091193,9.584837791798842e-05
2.726997035,0.26692841,-0.08333333333333333,2.5361532216494844e-05,97000.0,10524.932315658472,9.501248749241357e-05
2.87902638,0.28413297000000004,-0.08333333333333333,2.6751478453608247e-05,97000.0,10621.206244459961,9.415126464770436e-05
3.030040715,0.30156631,-0.08333333333333333,2.812860211340206e-05,97000.0,10720.984597251518,9.327501508176448e-05
3.18202522,0.31946743,-0.08333333333333333,2.951090505154639e-05,97000.0,10825.402658508425,9.237531679378518e-05
3.333026335,0.33763226,-0.08333333333333333,3.088035128865979e-05,97000.0,10933.56279674153,9.146149508539198e-05
3.48500594,0.356293365,-0.08333333333333333,3.2254768814432994e-05,97000.0,11046.222871719046,9.052868221229154e-05
3.6360630599999997,0.37526967499999997,-0.08333333333333333,3.361642664948453e-05,97000.0,11163.28272820021,8.957938487698089e-05
3.787963515,0.394826515,-0.08333333333333333,3.498079381443299e-05,97000.0,11286.951265156697,8.859788409710273e-05
3.938935,0.41474242,-0.08333333333333333,3.633188226804123e-05,97000.0,11415.384893637114,8.76010760318205e-05
4.09097153,0.435328245,-0.08333333333333333,3.768704417525773e-05,97000.0,11551.137918261082,8.65715574583444e-05
4.242000395,0.456350205,-0.08333333333333333,3.902732154639175e-05,97000.0,11693.095680612794,8.552055223990038e-05
4.3940934899999995,0.47813250500000004,-0.08333333333333333,4.03707318041237e-05,97000.0,11843.54317181738,8.443419215793266e-05
4.54499284,0.50040785,-0.08333333333333333,4.1696752474226804e-05,97000.0,12001.122876639069,8.332553630848678e-05
4.696961235,0.52359149,-0.08333333333333333,4.3024430360824736e-05,97000.0,12169.632127814262,8.217175256386373e-05
4.847979855,0.54742841,-0.08333333333333333,4.433558190721649e-05,97000.0,12347.38299241529,8.098882172961482e-05
4.99999573,0.5722979450000001,-0.08333333333333333,4.5646368917525777e-05,97000.0,12537.644473627959,7.97597987487545e-05
5.151013235000001,0.597991995,-0.08333333333333333,4.693836329896908e-05,97000.0,12739.941339478573,7.84932970531973e-05
5.30295031,0.6249334099999999,-0.08333333333333333,4.8226978350515465e-05,97000.0,12958.170538032899,7.717138750913552e-05
5.45400391,0.652968185,-0.08333333333333333,4.9495213659793816e-05,97000.0,13192.552101869644,7.580034494298342e-05
5.605987665,0.6825466,-0.08333333333333333,5.075712438144329e-05,97000.0,13447.30633025258,7.436433553612793e-05
5.756992125,0.7134651700000001,-0.08333333333333333,5.199512324742268e-05,97000.0,13721.770916955476,7.287689074916252e-05
5.909063355,0.74638076,-0.08333333333333333,5.322353190721649e-05,97000.0,14023.510527282378,7.130882085869482e-05
6.05999139,0.78107249,-0.08333333333333333,5.442184432989691e-05,97000.0,14352.187060498314,6.96757919740547e-05
6.211997455000001,0.818379985,-0.08333333333333333,5.5604303814432994e-05,97000.0,14717.925211889376,6.794435938512474e-05
6.36298918,0.858200775,-0.08333333333333333,5.675039592783504e-05,97000.0,15122.375112436319,6.612717860553673e-05
6.514974410000001,0.90149442,-0.08333333333333333,5.7870927731958774e-05,97000.0,15577.673545782067,6.419443808865592e-05
6.66609984,0.948263195,-0.08333333333333333,5.8946769536082475e-05,97000.0,16086.771208378934,6.216287824614186e-05
6.818005599999999,0.9996578199999999,-0.08333333333333333,5.998296680412371e-05,97000.0,16665.694834075388,6.000349880134355e-05
6.96894848,1.0558427,-0.08333333333333333,6.095985340206186e-05,97000.0,17320.295917317413,5.773573412219629e-05
7.12094457,1.1183342,-0.08333333333333333,6.188258113402061e-05,97000.0,18071.873853774723,5.533460492759732e-05
7.27194773,1.1870113,-0.08333333333333333,6.273130340206185e-05,97000.0,18922.152667419075,5.284810970380977e-05
7.423996525,1.2633960499999999,-0.08333333333333333,6.351134510309279e-05,97000.0,19892.446742377007,5.027033692490394e-05
7.575946675,1.3472743,-0.08333333333333333,6.421311726804124e-05,97000.0,20981.294123693573,4.766150238896507e-05
7.726971369999999,1.43807675,-0.08333333333333333,6.483396515463916e-05,97000.0,22180.91623071274,4.508380039844129e-05
7.878927715,1.53652175,-0.08333333333333333,6.538562850515463e-05,97000.0,23499.380293926046,4.255431366666605e-05
8.030001525,1.64068995,-0.08333333333333333,6.586919149484535e-05,97000.0,24908.305579071723,4.014725115787132e-05
8.18200384,1.7511101500000001,-0.08333333333333333,6.62978730927835e-05,97000.0,26412.765120674856,3.7860481302551694e-05
8.332963785,1.8655954000000001,-0.08333333333333333,6.667390087628866e-05,97000.0,27980.894705134382,3.5738671351938725e-05
8.484977685,1.9849610000000002,-0.08333333333333333,6.70104812886598e-05,97000.0,29621.649655811612,3.375909213765903e-05
8.635939669999999,2.1068974999999996,-0.08333333333333333,6.73097130927835e-05,97000.0,31301.537373896295,3.194731262094312e-05
8.787983575,2.2326047,-0.08333333333333333,6.758122551546392e-05,97000.0,33035.87176721345,3.0270125972351453e-05
8.938995335000001,2.3599065,-0.08333333333333333,6.782565809278352e-05,97000.0,34793.71326956705,2.8740824305023747e-05
9.09094207,2.49011125,-0.08333333333333333,6.804980226804124e-05,97000.0,36592.48325500941,2.732801687797733e-05
9.242022805000001,2.62133345,-0.08333333333333333,6.82545294329897e-05,97000.0,38405.267339415885,2.6038095013432845e-05
9.394020315,2.7550618499999997,-0.08333333333333333,6.844287077319588e-05,97000.0,40253.452534591204,2.4842589567706396e-05
9.54496508,2.88923285,-0.08333333333333333,6.861579618556701e-05,97000.0,42107.401074036294,2.374879414290441e-05
9.69693788,3.02536635,-0.08333333333333333,6.877908793814433e-05,97000.0,43986.71806641036,2.2734135301711258e-05
9.84793381,3.16165145,-0.08333333333333333,6.893074597938145e-05,97000.0,45867.07143639084,2.180213317928561e-05
9.9999277,3.29968635,-0.08333333333333333,6.907465309278352e-05,97000.0,47769.8577156478,2.0933702711708803e-05
10.151903449999999,3.4384715000000003,-0.08333333333333333,6.92106386597938e-05,97000.0,49681.256618680716,2.0128315345872083e-05
10.30293365,3.5771106,-0.08333333333333333,6.933838195876288e-05,97000.0,51589.18479129481,1.938390777147424e-05
10.4549251,3.7173290000000003,-0.08333333333333333,6.945975360824742e-05,97000.0,53517.739509496576,1.868539308956711e-05
10.6059219,3.8572036,-0.08333333333333333,6.957441546391752e-05,97000.0,55439.97134981913,1.8037527358918135e-05
10.7579475,3.99845485,-0.08333333333333333,6.96854912371134e-05,97000.0,57378.58453770195,1.7428105068414967e-05
10.90898535,4.1392966,-0.08333333333333333,6.97906056701031e-05,97000.0,59310.22607206276,1.686049887560681e-05
11.0610363,4.28141535,-0.08333333333333333,6.989299948453608e-05,97000.0,61256.71213963665,1.6324741649869615e-05
11.21198175,4.42283105,-0.08333333333333333,6.99912443298969e-05,97000.0,63191.20473345805,1.582498710410765e-05
11.36397325,4.56560825,-0.08333333333333333,7.008623711340207e-05,97000.0,65142.721852974944,1.5350909074032374e-05
11.5149429,4.70763525,-0.08333333333333333,7.017842938144329e-05,97000.0,67080.94341086525,1.4907363390450287e-05
11.6669353,4.85085005,-0.08333333333333333,7.026892010309278e-05,97000.0,69032.65402233636,1.4485898219651787e-05
11.81807765,4.99361965,-0.08333333333333333,7.035523711340205e-05,97000.0,70977.22720983851,1.4089026006096008e-05
11.96999955,5.1375278,-0.08333333333333333,7.043785309278351e-05,97000.0,72937.02994088485,1.3710456825709735e-05
12.121014800000001,5.28071755,-0.08333333333333333,7.051852835051547e-05,97000.0,74884.11448055126,1.3353967085498726e-05
12.273003899999999,5.4250028,-0.08333333333333333,7.059794948453608e-05,97000.0,76843.63128972043,1.3013440192977613e-05
