vbias,vds,vgs,ids,Rbias,Rfet,Gfet
2.3378223049999998e-05,0.0,-1.1,4.684075946704067e-09,4991.0,0.0,inf
2.812540665,0.5,-1.1,0.0004603750430775396,4991.0,1086.0710360352582,0.0009207500861550791
3.75072721,1.0,-1.1,0.0005425163013424163,4991.0,1843.2625849685514,0.0005425163013424163
4.375917025,1.5,-1.1,0.0005795082498497294,4991.0,2588.4014600119335,0.00038633883323315295
5.001201755,2.0,-1.1,0.0006077408745742337,4991.0,3290.8762330674963,0.00030387043728711687
5.00119214,0.0,-1.1040404040404042,0.0010020421037868162,4991.0,0.0,inf
2.81261834,0.5,-1.1040404040404042,0.00045343282308154685,4991.0,1102.6991751545042,0.0009068656461630938
3.594908165,1.0,-1.1040404040404042,0.0005205585744339812,4991.0,1921.0134058157232,0.0005205585744339812
4.297993955,1.5,-1.1040404040404042,0.0005620501212181927,4991.0,2668.8011324486256,0.0003747000808121285
5.0012528199999995,2.0,-1.1040404040404042,0.0005927091103987176,4991.0,3374.336525137251,0.0002963545551993588
5.001244815,0.0,-1.1080808080808082,0.001002052657784011,4991.0,0.0,inf
2.6566395,0.5,-1.1080808080808082,0.0004298439741534762,4991.0,1163.212770365543,0.0008596879483069525
3.437762715,1.0,-1.1080808080808082,0.0004984496573832899,4991.0,2006.2206587716357,0.0004984496573832899
4.21994983,1.5,-1.1080808080808082,0.0005446427729913845,4991.0,2754.0987861849917,0.00036309518199425633
4.845085075,2.0,-1.1080808080808082,0.0005715307503506312,4991.0,3499.37426599183,0.0002857653751753156
4.84509088,0.0,-1.1121212121212123,0.000970765553997195,4991.0,0.0,inf
2.500626075,0.5,-1.1121212121212123,0.00040633696153075533,4991.0,1230.5058297340136,0.0008126739230615106
3.43776955,1.0,-1.1121212121212123,0.0004875876177118814,4991.0,2050.9134433986105,0.00048758761771188137
4.140958035000001,1.5,-1.1121212121212123,0.000527400948707674,4991.0,2844.135953254447,0.00035160063247178266
4.766099485,2.0,-1.1121212121212123,0.0005537524614305751,4991.0,3611.7220948023605,0.00027687623071528754
4.76610442,0.0,-1.1161616161616164,0.0009549397755960729,4991.0,0.0,inf
2.5006421850000002,0.5,-1.1161616161616164,0.00039970995091164103,4991.0,1250.9070611317577,0.0007994199018232821
3.281751505,1.0,-1.1161616161616164,0.0004661134582248046,4991.0,2145.4004005988263,0.00046611345822480455
4.062992855,1.5,-1.1161616161616164,0.00051031282408335,4991.0,2939.3735160278925,0.00034020854938890003
4.688069325000001,2.0,-1.1161616161616164,0.0005359739881787218,4991.0,3731.5243726587255,0.0002679869940893609
4.68807619,0.0,-1.1202020202020202,0.0009393059887798037,4991.0,0.0,inf
2.500639905,0.5,-1.1202020202020202,0.0003925333019434983,4991.0,1273.7772757735868,0.0007850666038869966
3.28175168,1.0,-1.1202020202020202,0.000455146740132238,4991.0,2197.0936223984836,0.00045514674013223796
3.906939315,1.5,-1.1202020202020202,0.0004896555529953917,4991.0,3063.377900697711,0.0003264370353302612
4.532075025,2.0,-1.1202020202020202,0.0005156050941695051,4991.0,3878.937626133112,0.00025780254708475256
4.532078505,0.0,-1.1242424242424243,0.00090805019134442,4991.0,0.0,inf
2.344486315,0.5,-1.1242424242424243,0.00036992355640152276,4991.0,1351.6306040734794,0.0007398471128030455
3.1257969699999997,1.0,-1.1242424242424243,0.00043444319875776395,4991.0,2301.796881293976,0.0004344431987577639
3.9069371100000003,1.5,-1.1242424242424243,0.0004769714806651974,4991.0,3144.842114895547,0.0003179809871101316
4.53206662,2.0,-1.1242424242424243,0.0005016131677018634,4991.0,3987.1361614428574,0.0002508065838509317
4.53207672,0.0,-1.1282828282828283,0.0009080498337006612,4991.0,0.0,inf
2.18748575,0.5,-1.1282828282828283,0.00034729796133039473,4991.0,1439.6859632709889,0.0006945959226607895
3.12579344,1.0,-1.1282828282828283,0.00042395802244039264,4991.0,2358.7240883986274,0.0004239580224403927
3.75083217,1.5,-1.1282828282828283,0.00045725592466439583,4991.0,3280.4386320438143,0.0003048372831095972
4.376009685,2.0,-1.1282828282828283,0.000482214743538369,4991.0,4147.529760961909,0.0002411073717691845
4.37601982,0.0,-1.1323232323232324,0.000876782171909437,4991.0,0.0,inf
2.1874909750000002,0.5,-1.1323232323232324,0.0003409251252254058,4991.0,1466.5976867191011,0.0006818502504508116
2.969670955,1.0,-1.1323232323232324,0.0004037295541975556,4991.0,2476.9056156604115,0.00040372955419755565
3.75084062,1.5,-1.1323232323232324,0.00044465608495291523,4991.0,3373.3936198328097,0.0002964373899686101
4.376017055,2.0,-1.1323232323232324,0.0004682846433580445,4991.0,4270.906655529221,0.00023414232167902227
4.376022125,0.0,-1.1363636363636365,0.0008767826337407334,4991.0,0.0,inf
2.1874998000000003,0.5,-1.1363636363636365,0.0003342569715487879,4991.0,1495.8551131581123,0.0006685139430975758
2.9696764800000004,1.0,-1.1363636363636365,0.0003934665257463435,4991.0,2541.5122623281836,0.0003934665257463435
3.594955895,1.5,-1.1363636363636365,0.00042554994890803445,4991.0,3524.8506170639084,0.00028369996593868965
4.219997595000001,2.0,-1.1363636363636365,0.00044959622219996006,4991.0,4448.4359548521525,0.00022479811109998006
4.220002705,0.0,-1.1404040404040405,0.0008455224814666399,4991.0,0.0,inf
2.03144898,0.5,-1.1404040404040405,0.00031265342917251055,4991.0,1599.2148281352083,0.0006253068583450211
2.8907940500000002,1.0,-1.1404040404040405,0.00037852416349428976,4991.0,2641.839270625812,0.00037852416349428976
3.59495928,1.5,-1.1404040404040405,0.0004132450771388499,4991.0,3629.8073055955647,0.0002754967180925666
4.220000604999999,2.0,-1.1404040404040405,0.000435907734922861,4991.0,4588.126889636229,0.0002179538674614305
4.22000522,0.0,-1.1444444444444446,0.0008455229853736727,4991.0,0.0,inf
2.03146003,0.5,-1.1444444444444446,0.00030614624123422154,4991.0,1633.2063983025284,0.0006122924824684431
2.812676295,1.0,-1.1444444444444446,0.00036370551192145865,4991.0,2749.477165515016,0.00036370551192145865
3.4378032249999997,1.5,-1.1444444444444446,0.0003945680875576036,4991.0,3801.6252385870225,0.0002630453917050691
4.06302176,2.0,-1.1444444444444446,0.0004175147084752554,4991.0,4790.250401725746,0.0002087573542376277
4.06302722,0.0,-1.1484848484848487,0.0008140707713884994,4991.0,0.0,inf
1.875420775,0.5,-1.1484848484848487,0.00028500491584852733,4991.0,1754.3557047476927,0.0005700098316970547
2.812685755,1.0,-1.1484848484848487,0.00035352412442396313,4991.0,2828.661273482858,0.00035352412442396313
3.437807235,1.5,-1.1484848484848487,0.0003825568192746945,4991.0,3920.986176233671,0.00025503787951646303
4.063022885,2.0,-1.1484848484848487,0.00040435951412542574,4991.0,4946.093587845277,0.00020217975706271287
4.06302653,0.0,-1.1525252525252525,0.0008140706331396513,4991.0,0.0,inf
1.8754254449999999,0.5,-1.1525252525252525,0.0002786685323582448,4991.0,1794.2463606088847,0.0005573370647164896
2.656677855,1.0,-1.1525252525252525,0.0003347719975956722,4991.0,2987.1076648644034,0.0003347719975956722
3.2817830199999998,1.5,-1.1525252525252525,0.00036454374273692643,4991.0,4114.73253864757,0.0002430291618246176
3.9069738249999997,2.0,-1.1525252525252525,0.000386571133039471,4991.0,5173.692055779523,0.0001932855665197355
3.90697778,0.0,-1.1565656565656566,0.0007828046042877179,4991.0,0.0,inf
1.8754310699999999,0.5,-1.1565656565656566,0.00027221054397916244,4991.0,1836.8134925672634,0.0005444210879583249
2.65669015,1.0,-1.1565656565656566,0.00032493389100380694,4991.0,3077.549088249105,0.00032493389100380694
3.281778755,1.5,-1.1565656565656566,0.00035296929573231815,4991.0,4249.66142419809,0.00023531286382154546
3.906966355,2.0,-1.1565656565656566,0.0003738901232217991,4991.0,5349.1651043522215,0.00018694506161089956
3.9069671699999997,0.0,-1.1606060606060606,0.0007828024784612301,4991.0,0.0,inf
1.71939138,0.5,-1.1606060606060606,0.000252075729312763,4991.0,1983.5309070141573,0.000504151458625526
2.5006463500000002,1.0,-1.1606060606060606,0.00030697597675816477,4991.0,3257.5839013871714,0.00030697597675816477
3.1258388100000003,1.5,-1.1606060606060606,0.00033568531556802246,4991.0,4468.470708829811,0.00022379021037868162
3.7508799699999997,2.0,-1.1606060606060606,0.0003568924704468042,4991.0,5603.928817820508,0.0001784462352234021
3.7508832,0.0,-1.1646464646464647,0.000751529392907233,4991.0,0.0,inf
1.71940062,0.5,-1.1646464646464647,0.00024588969745541976,4991.0,2033.4320842810052,0.0004917793949108395
2.50066085,1.0,-1.1646464646464647,0.00029749780605089164,4991.0,3361.3693266327296,0.00029749780605089164
3.125844355,1.5,-1.1646464646464647,0.00032460383790823484,4991.0,4621.017452122819,0.00021640255860548991
3.750884245,2.0,-1.1646464646464647,0.00034473174614305747,4991.0,5801.612478039769,0.00017236587307152874
3.7508908400000003,0.0,-1.1686868686868688,0.0007515309236625927,4991.0,0.0,inf
1.719399665,0.5,-1.1686868686868688,0.000239527897214987,4991.0,2087.4395250555203,0.00047905579442997405
2.42256463,1.0,-1.1686868686868688,0.000284237954317772,4991.0,3518.1789933726486,0.000284237954317772
3.0477054949999998,1.5,-1.1686868686868688,0.0003107557794029252,4991.0,4826.9416030879465,0.00020717051960195013
3.5949895400000003,2.0,-1.1686868686868688,0.00032832379082348227,4991.0,6091.547599958317,0.00016416189541174113
3.5949914400000003,0.0,-1.1727272727272728,0.0007202948186736125,4991.0,0.0,inf
1.5624383499999999,0.5,-1.1727272727272728,0.00022042434181526746,4991.0,2268.3520154005423,0.0004408486836305349
2.3445182300000003,1.0,-1.1727272727272728,0.0002711492205970748,4991.0,3688.006175337641,0.0002711492205970748
2.9697051500000002,1.5,-1.1727272727272728,0.00029736831296333407,4991.0,5044.249621125409,0.00019824554197555604
3.594994315,2.0,-1.1727272727272728,0.00031657147164896823,4991.0,6317.688671004788,0.00015828573582448411
3.5949981,0.0,-1.176767676767677,0.000720296153075536,4991.0,0.0,inf
1.5624494649999998,0.5,-1.176767676767677,0.00021287659487076734,4991.0,2348.778644752087,0.0004257531897415347
2.3445234700000004,1.0,-1.176767676767677,0.0002597527890202365,4991.0,3849.814293705594,0.0002597527890202365
2.89083507,1.5,-1.176767676767677,0.00028130525345622116,4991.0,5332.285769890328,0.00018753683563748076
3.437839255,2.0,-1.176767676767677,0.0002978233530354639,4991.0,6715.390111674172,0.00014891167651773194
3.43784377,0.0,-1.180808080808081,0.0006888086094970948,4991.0,0.0,inf
1.56245243,0.5,-1.180808080808081,0.00020644139751552798,4991.0,2421.994842204027,0.00041288279503105596
2.187531405,1.0,-1.180808080808081,0.00024330960428771794,4991.0,4109.989833436588,0.00024330960428771794
2.81271206,1.5,-1.180808080808081,0.0002683708695652174,4991.0,5589.28024651156,0.00017891391304347825
3.437844375,2.0,-1.180808080808081,0.00028677057202965335,4991.0,6974.216307638397,0.00014338528601482667
3.4378485249999997,0.0,-1.1848484848484848,0.0006888095622119815,4991.0,0.0,inf
1.4063554200000001,0.5,-1.1848484848484848,0.00018880174714486076,4991.0,2648.280577702324,0.0003776034942897215
2.18752478,1.0,-1.1848484848484848,0.00023471090563013423,4991.0,4260.56044270834,0.0002347109056301342
2.8127129699999998,1.5,-1.1848484848484848,0.0002583137888198757,4991.0,5806.89094009597,0.0001722091925465838
3.359878065,2.0,-1.1848484848484848,0.0002735708505309557,4991.0,7310.720407961342,0.00013678542526547786
3.359883725,0.0,-1.1888888888888889,0.0006731884842716891,4991.0,0.0,inf
1.4063665250000001,0.5,-1.1888888888888889,0.0001828067912242036,4991.0,2735.128146233771,0.0003656135824484072
2.10945362,1.0,-1.1888888888888889,0.00022255995291524746,4991.0,4493.171331595347,0.00022255995291524744
2.73469873,1.5,-1.1888888888888889,0.0002457746203165698,4991.0,6103.152547109731,0.0001638497468777132
3.28180628,2.0,-1.1888888888888889,0.00026087064315768386,4991.0,7666.634987330082,0.00013043532157884193
3.28180089,0.0,-1.192929292929293,0.0006575437567621719,4991.0,0.0,inf
1.406361865,0.5,-1.192929292929293,0.00017685206371468643,4991.0,2827.2217439692686,0.00035370412742937287
2.031481695,1.0,-1.192929292929293,0.0002107980895612102,4991.0,4743.876009889674,0.00021079808956121022
2.65670964,1.5,-1.192929292929293,0.00023366350230414744,4991.0,6419.487789956726,0.00015577566820276496
3.281811805,2.0,-1.192929292929293,0.0002502937096774193,4991.0,7990.612319333223,0.00012514685483870966
3.2818126249999997,0.0,-1.196969696969697,0.0006575461079943899,4991.0,0.0,inf
1.250346765,0.5,-1.196969696969697,0.0001601966740132238,4991.0,3121.1634266434667,0.0003203933480264476
2.031488025,1.0,-1.196969696969697,0.00020274165998797832,4991.0,4932.385381767593,0.00020274165998797835
2.656709685,1.5,-1.196969696969697,0.00022429050991785212,4991.0,6687.755092934538,0.00014952700661190142
3.203818055,2.0,-1.196969696969697,0.00023837327289120416,4991.0,8390.202373538828,0.00011918663644560208
3.203814875,0.0,-1.201010101010101,0.0006419184281707072,4991.0,0.0,inf
1.2503482799999999,0.5,-1.201010101010101,0.0001548839891805249,4991.0,3228.222637119873,0.0003097679783610498
1.95345982,1.0,-1.201010101010101,0.0001914988920056101,4991.0,5221.962328485453,0.0001914988920056101
2.5006903449999998,1.5,-1.201010101010101,0.0002104504297735924,4991.0,7127.569193437788,0.00014030028651572827
3.125877265,2.0,-1.201010101010101,0.00022651960829493095,4991.0,8829.25771881072,0.00011325980414746548
3.125880125,0.0,-1.2050505050505051,0.0006263033710679223,4991.0,0.0,inf
1.2503551700000002,0.5,-1.2050505050505051,0.00014910576137046688,4991.0,3353.3244819273236,0.00029821152274093376
1.8754513949999998,1.0,-1.2050505050505051,0.0001805197755960729,4991.0,5539.5592903770175,0.0001805197755960729
2.500692565,1.5,-1.2050505050505051,0.00020133318272891204,4991.0,7450.336698941955,0.0001342221218192747
3.125877815,2.0,-1.2050505050505051,0.00021649835003005404,4991.0,9237.94569206815,0.00010824917501502702
3.12587524,0.0,-1.2090909090909092,0.0006263023923061511,4991.0,0.0,inf
1.250356415,0.5,-1.2090909090909092,0.000143616198156682,4991.0,3481.501435196825,0.000287232396313364
1.87546298,1.0,-1.2090909090909092,0.00017306083550390705,4991.0,5778.31487458307,0.00017306083550390705
2.500709815,1.5,-1.2090909090909092,0.0001927274624323783,4991.0,7783.011206959156,0.00012848497495491885
2.969751885,2.0,-1.2090909090909092,0.0002039242606692046,4991.0,9807.562834538341,0.0001019621303346023
2.9697538750000003,0.0,-1.2131313131313133,0.0005950218142656783,4991.0,0.0,inf
1.094309075,0.5,-1.2131313131313133,0.0001287080024043278,4991.0,3884.7623353618883,0.0002574160048086556
1.875455415,1.0,-1.2131313131313133,0.0001656825115207373,4991.0,6035.640037209582,0.0001656825115207373
2.4226054699999997,1.5,-1.2131313131313133,0.00018223157082748943,4991.0,8231.285024810457,0.00012148771388499296
2.9697491,2.0,-1.2131313131313133,0.00019465815467842115,4991.0,10274.421861771149,9.732907733921057e-05
2.9697528799999997,0.0,-1.2171717171717171,0.0005950216149068322,4991.0,0.0,inf
1.09430387,0.5,-1.2171717171717171,0.00012363967641755162,4991.0,4044.0092896346423,0.00024727935283510325
1.7194221550000002,1.0,-1.2171717171717171,0.00015278252454417956,4991.0,6545.251186177603,0.00015278252454417956
2.344544395,1.5,-1.2171717171717171,0.00017189314666399513,4991.0,8726.351393939494,0.0001145954311093301
2.969743255,2.0,-1.2171717171717171,0.00018579602384291723,4991.0,10764.493010307457,9.289801192145862e-05
2.96974628,0.0,-1.2212121212121212,0.0005950202925265477,4991.0,0.0,inf
1.0943035349999999,0.5,-1.2212121212121212,0.00011864158284912842,4991.0,4214.373982483268,0.00023728316569825687
1.719417055,1.0,-1.2212121212121212,0.0001459910048086556,4991.0,6849.737086957232,0.0001459910048086556
2.344544315,1.5,-1.2212121212121212,0.00016397162191945496,4991.0,9147.924393507676,0.00010931441461296998
2.8908550450000003,2.0,-1.2212121212121212,0.0001755966730114206,4991.0,11389.737434660407,8.77983365057103e-05
2.890858285,0.0,-1.2252525252525253,0.0005792142426367462,4991.0,0.0,inf
1.09430083,0.5,-1.2252525252525253,0.00011356862452414344,4991.0,4402.624422854619,0.00022713724904828688
1.71942354,1.0,-1.2252525252525253,0.00013915073933079542,4991.0,7186.451216926378,0.00013915073933079542
2.26554274,1.5,-1.2252525252525253,0.000154252282107794,4991.0,9724.329387566373,0.00010283485473852934
2.81273917,2.0,-1.2252525252525253,0.00016561823682628729,4991.0,12075.964811156326,8.280911841314364e-05
2.8127361300000002,0.0,-1.2292929292929293,0.0005635616369465038,4991.0,0.0,inf
1.0152915299999998,0.5,-1.2292929292929293,0.000104602701863354,4991.0,4779.99125350669,0.00020920540372670798
1.640387605,1.0,-1.2292929292929293,0.00013010013323983168,4991.0,7686.387208816773,0.00013010013323983168
2.18754895,1.5,-1.2292929292929293,0.00014494411941494694,4991.0,10348.81584747699,9.662941294329795e-05
2.812740385,2.0,-1.2292929292929293,0.00015753461931476662,4991.0,12695.622134991432,7.876730965738331e-05
2.81273589,0.0,-1.2333333333333334,0.0005635615888599479,4991.0,0.0,inf
0.93724245,0.5,-1.2333333333333334,9.590088559406931e-05,4991.0,5213.716191489695,0.00019180177118813862
1.56246193,1.0,-1.2333333333333334,0.00012135563714686437,4991.0,8240.243498452419,0.00012135563714686437
2.18755256,1.5,-1.2333333333333334,0.000137767102785013,4991.0,10887.940369485492,9.184473519000865e-05
2.7347268849999997,2.0,-1.2333333333333334,0.0001483695421759166,4991.0,13479.855573246088,7.41847710879583e-05
2.7347250350000003,0.0,-1.2373737373737375,0.0005479312833099579,4991.0,0.0,inf
0.937237715,0.5,-1.2373737373737375,9.139542776998597e-05,4991.0,5470.733188736152,0.00018279085553997193
1.5624653,1.0,-1.2373737373737375,0.00011522427068723701,4991.0,8678.727094870357,0.000115224270687237
2.1875489200000002,1.5,-1.2373737373737375,0.00013063223201763174,4991.0,11482.617856499164,8.708815467842116e-05
2.65672998,2.0,-1.2373737373737375,0.00013927029252654778,4991.0,14360.564365288159,6.963514626327389e-05
2.65673289,0.0,-1.2414141414141415,0.0005323047265077138,4991.0,0.0,inf
0.937241279,0.5,-1.2414141414141415,8.70309735523943e-05,4991.0,5745.081085402205,0.0001740619471047886
1.562465655,1.0,-1.2414141414141415,0.00010923147765978762,4991.0,9154.870202475886,0.0001092314776597876
2.10948308,1.5,-1.2414141414141415,0.00012210403325986776,4991.0,12284.606494591599,8.140268883991183e-05
2.65673476,2.0,-1.2414141414141415,0.0001319376197154879,4991.0,15158.67880830977,6.596880985774395e-05
2.65673885,0.0,-1.2454545454545456,0.0005323059206571829,4991.0,0.0,inf
0.9372467250000001,0.5,-1.2454545454545456,8.259749649368866e-05,4991.0,6053.452237964687,0.00016519499298737732
1.562470685,1.0,-1.2454545454545456,0.00010333616209176518,4991.0,9677.154441946219,0.0001033361620917652
2.03151577,1.5,-1.2454545454545456,0.00011408986575836502,4991.0,13147.530589411888,7.605991050557668e-05
2.65674404,2.0,-1.2454545454545456,0.00012488954918853936,4991.0,16014.150207081799,6.244477459426968e-05
2.65674281,0.0,-1.2494949494949497,0.0005323067140853536,4991.0,0.0,inf
0.937248477,0.5,-1.2494949494949497,7.846161130034061e-05,4991.0,6372.543103735998,0.00015692322260068122
1.48439006,1.0,-1.2494949494949497,9.592252254057303e-05,4991.0,10425.080299332441,9.592252254057303e-05
2.03150783,1.5,-1.2494949494949497,0.00010798761370466832,4991.0,13890.481959368964,7.199174246977888e-05
2.57866999,2.0,-1.2494949494949497,0.00011699310559006205,4991.0,17095.024445354065,5.849655279503102e-05
2.57867198,0.0,-1.2535353535353535,0.0005166643919054298,4991.0,0.0,inf
0.859234923,0.5,-1.2535353535353535,7.1213126227209e-05,4991.0,7021.177506022209,0.000142426252454418
1.4063809749999998,1.0,-1.2535353535353535,8.856544179523138e-05,4991.0,11291.085774878875,8.856544179523138e-05
2.031508885,1.5,-1.2535353535353535,0.00010181767882187935,4991.0,14732.215636383851,6.787845254791958e-05
2.50071229,2.0,-1.2535353535353535,0.00010923056301342415,4991.0,18309.89372227446,5.4615281506712084e-05
2.50070427,0.0,-1.2575757575757576,0.0005010427309156481,4991.0,0.0,inf
0.781229671,0.5,-1.2575757575757576,6.42926108996193e-05,4991.0,7776.943462144584,0.0001285852217992386
1.40638328,1.0,-1.2575757575757576,8.354804448006413e-05,4991.0,11969.161052460247,8.354804448006413e-05
