vbias,vds,vgs,ids,Rbias,Rfet,Gfet
2.248075855e-05,0.0,0.0,2.317603974226804e-10,97000.0,0.0,inf
8.28104263,1.25,0.0,7.25487137113402e-05,97000.0,17229.802377662425,5.803897096907216e-05
10.15604625,2.5,0.0,7.876849175257731e-05,97000.0,31738.579022851478,3.150739670103093e-05
11.5621665,3.75,0.0,8.041328814432989e-05,97000.0,46634.08357670075,2.1443543505154637e-05
12.89107235,5.0,0.0,8.138175927835052e-05,97000.0,61438.82909803498,1.6276351855670103e-05
12.890993250000001,0.0,-0.007575757575757576,0.00013289683762886598,97000.0,0.0,inf
8.281107655,1.25,-0.007575757575757576,7.218419489690722e-05,97000.0,17316.810165788203,5.774735591752578e-05
10.0781156,2.5,-0.007575757575757576,7.783955670103093e-05,97000.0,32117.346320484496,3.113582268041237e-05
11.4840947,3.75,-0.007575757575757576,7.945834845360825e-05,97000.0,47194.53742723381,2.1188892920962198e-05
12.8120451,5.0,-0.007575757575757576,8.03982113402062e-05,97000.0,62190.438277817244,1.607964226804124e-05
12.812080649999999,0.0,-0.015151515151515152,0.00013208330567010307,97000.0,0.0,inf
8.125124825,1.25,-0.015151515151515152,7.087271262886597e-05,97000.0,17637.253515972854,5.6698170103092776e-05
9.922076624999999,2.5,-0.015151515151515152,7.664373530927834e-05,97000.0,32618.45198321584,3.0657494123711337e-05
11.3281572,3.75,-0.015151515151515152,7.827674175257732e-05,97000.0,47906.950596554794,2.0873797800687287e-05
12.695220599999999,5.0,-0.015151515151515152,7.92791618556701e-05,97000.0,63068.27523104543,1.585583237113402e-05
12.695018999999998,0.0,-0.022727272727272728,0.00013087648453608247,97000.0,0.0,inf
8.04709495,1.25,-0.022727272727272728,7.008774690721649e-05,97000.0,17834.78646638155,5.6070197525773194e-05
9.844077465000002,2.5,-0.022727272727272728,7.580368726804126e-05,97000.0,32979.926044494634,3.03214749072165e-05
11.2501962,3.75,-0.022727272727272728,7.742133969072164e-05,97000.0,48436.25820710784,2.0645690584192438e-05
12.578207500000001,5.0,-0.022727272727272728,7.839607680412373e-05,97000.0,63778.70173902623,1.5679215360824745e-05
12.5781529,0.0,-0.030303030303030304,0.00012967167938144329,97000.0,0.0,inf
7.9690903550000005,1.25,-0.030303030303030304,6.927342530927835e-05,97000.0,18044.437595214124,5.541874024742269e-05
9.765061085,2.5,-0.030303030303030304,7.48429761340206e-05,97000.0,33403.26813732358,2.9937190453608245e-05
11.17210405,3.75,-0.030303030303030304,7.641178402061855e-05,97000.0,49076.2000660542,2.0376475738831616e-05
12.500108350000001,5.0,-0.030303030303030304,7.733500103092784e-05,97000.0,64653.77815150475,1.546700020618557e-05
12.50013715,0.0,-0.03787878787878788,0.0001288673932989691,97000.0,0.0,inf
7.89011003,1.25,-0.03787878787878788,6.84102544329897e-05,97000.0,18272.114471148765,5.472820354639176e-05
9.687020245,2.5,-0.03787878787878788,7.381045097938144e-05,97000.0,33870.54227183034,2.9524180391752575e-05
11.05510495,3.75,-0.03787878787878788,7.529584484536083e-05,97000.0,49803.545038927165,2.007889195876289e-05
12.42198115,5.0,-0.03787878787878788,7.622947680412371e-05,97000.0,65591.42486111776,1.5245895360824743e-05
12.42201985,0.0,-0.045454545454545456,0.00012806206030927835,97000.0,0.0,inf
7.8120886249999995,1.25,-0.045454545454545456,6.758784304123711e-05,97000.0,18494.450240664468,5.407027443298969e-05
9.530999115,2.5,-0.045454545454545456,7.274663932989691e-05,97000.0,34365.848691137646,2.909865573195876e-05
10.93813575,3.75,-0.045454545454545456,7.429793762886598e-05,97000.0,50472.464238940905,1.9812783367697593e-05
12.26606635,5.0,-0.045454545454545456,7.521286752577318e-05,97000.0,66477.98660630312,1.5042573505154634e-05
12.266159,0.0,-0.05303030303030303,0.00012645524742268042,97000.0,0.0,inf
7.65607269,1.25,-0.05303030303030303,6.63067019587629e-05,97000.0,18851.789684508713,5.304536156701032e-05
9.453055554999999,2.5,-0.05303030303030303,7.175882685567009e-05,97000.0,34838.91960815215,2.870353074226804e-05
10.8591293,3.75,-0.05303030303030303,7.329765773195875e-05,97000.0,51161.252842666894,1.954604206185567e-05
12.1881168,5.0,-0.05303030303030303,7.421973969072164e-05,97000.0,67367.52272152013,1.484394793814433e-05
12.1880907,0.0,-0.06060606060606061,0.00012565041958762887,97000.0,0.0,inf
7.656088710000001,1.25,-0.06060606060606061,6.595991659793816e-05,97000.0,18950.903282965548,5.276793327835053e-05
9.37509153,2.5,-0.06060606060606061,7.093022453608248e-05,97000.0,35245.90562558054,2.837208981443299e-05
10.7810707,3.75,-0.06060606060606061,7.243806855670103e-05,97000.0,51768.35985162526,1.9316818281786944e-05
12.10902665,5.0,-0.06060606060606061,7.33343381443299e-05,97000.0,68180.8839695186,1.4666867628865983e-05
12.1090448,0.0,-0.06818181818181818,0.00012483551340206184,97000.0,0.0,inf
7.5000906149999995,1.25,-0.06818181818181818,6.472067077319588e-05,97000.0,19313.767689158263,5.17765366185567e-05
9.297055199999999,2.5,-0.06818181818181818,6.995009690721648e-05,97000.0,35739.764639869776,2.7980038762886594e-05
10.703086599999999,3.75,-0.06818181818181818,7.142590206185566e-05,97000.0,52501.962057860415,1.9046907216494843e-05
12.03116485,5.0,-0.06818181818181818,7.229785103092782e-05,97000.0,69158.34881262353,1.4459570206185564e-05
12.03112555,0.0,-0.07575757575757576,0.00012403222216494846,97000.0,0.0,inf
7.50010486,1.25,-0.07575757575757576,6.42708006185567e-05,97000.0,19448.956415195044,5.141664049484536e-05
9.179110925,2.5,-0.07575757575757576,6.890005644329896e-05,97000.0,36284.44052230009,2.7560022577319585e-05
10.547126800000001,3.75,-0.07575757575757576,7.03452675257732e-05,97000.0,53308.490135829954,1.8758738006872854e-05
11.91425875,5.0,-0.07575757575757576,7.126027525773196e-05,97000.0,70165.31976499045,1.4252055051546392e-05
11.9142552,0.0,-0.08333333333333334,0.0001228273731958763,97000.0,0.0,inf
7.3441363850000005,1.25,-0.08333333333333334,6.311224726804125e-05,97000.0,19805.98147125359,5.0489797814433e-05
9.10112249,2.5,-0.08333333333333334,6.805986020618556e-05,97000.0,36732.3704813133,2.722394408247422e-05
10.469096,3.75,-0.08333333333333334,6.946981546391754e-05,97000.0,53980.27870029022,1.8525284123711344e-05
11.797169199999999,5.0,-0.08333333333333334,7.034500360824741e-05,97000.0,71078.25351527579,1.4069000721649483e-05
11.797174049999999,0.0,-0.09090909090909091,0.00012162035103092783,97000.0,0.0,inf
7.34412486,1.25,-0.09090909090909091,6.264441350515464e-05,97000.0,19953.89421112778,5.011553080412371e-05
8.984101294999999,2.5,-0.09090909090909091,6.701874015463916e-05,97000.0,37302.999045214754,2.680749606185566e-05
10.3910844,3.75,-0.09090909090909091,6.843680463917527e-05,97000.0,54795.0772946139,1.824981457044674e-05
11.7191114,5.0,-0.09090909090909091,6.928274793814433e-05,97000.0,72168.0382028727,1.3856549587628866e-05
11.719110650000001,0.0,-0.09848484848484848,0.00012081557371134022,97000.0,0.0,inf
7.18707895,1.25,-0.09848484848484848,6.14539268041237e-05,97000.0,20340.4414494815,4.9163141443298964e-05
8.90621262,2.5,-0.09848484848484848,6.614076927835051e-05,97000.0,37798.1693783884,2.6456307711340202e-05
10.3121302,3.75,-0.09848484848484848,6.754611907216495e-05,97000.0,55517.62338845217,1.8012298419243987e-05
11.6410895,5.0,-0.09848484848484848,6.838661907216494e-05,97000.0,73113.71826590452,1.3677323814432987e-05
11.64109045,0.0,-0.10606060606060606,0.00012001124175257732,97000.0,0.0,inf
7.187075625,1.25,-0.10606060606060606,6.09914631443299e-05,97000.0,20494.671476268835,4.879317051546392e-05
8.828094440000001,2.5,-0.10606060606060606,6.517835041237115e-05,97000.0,38356.2944472048,2.607134016494846e-05
10.2341473,3.75,-0.10606060606060606,6.655379845360824e-05,97000.0,56345.39405912289,1.7747679587628865e-05
11.5622612,5.0,-0.10606060606060606,6.738691288659793e-05,97000.0,74198.38342222695,1.3477382577319588e-05
11.56225635,0.0,-0.11363636363636365,0.00011919851907216495,97000.0,0.0,inf
7.03112393,1.25,-0.11363636363636365,5.9844620927835046e-05,97000.0,20887.424477253186,4.787569674226804e-05
8.75006007,2.5,-0.11363636363636365,6.433795845360825e-05,97000.0,38857.31005597044,2.5735183381443298e-05
10.11713155,3.75,-0.11363636363636365,6.568429175257731e-05,97000.0,57091.27555376066,1.751581113402062e-05
11.48415535,5.0,-0.11363636363636365,6.655414742268041e-05,97000.0,75126.79815797765,1.3310829484536082e-05
11.48416185,0.0,-0.12121212121212122,0.00011839342113402062,97000.0,0.0,inf
7.03114776,1.25,-0.12121212121212122,5.939221865979381e-05,97000.0,21046.52811776841,4.751377492783505e-05
8.67217163,2.5,-0.12121212121212122,6.340519051546391e-05,97000.0,39428.94863458023,2.5362076206185563e-05
10.00002865,3.75,-0.12121212121212122,6.468534896907218e-05,97000.0,57972.94224682898,1.724942639175258e-05
11.328209099999999,5.0,-0.12121212121212122,6.550368453608247e-05,97000.0,76331.58402327381,1.3100736907216493e-05
11.3282122,0.0,-0.12878787878787878,0.00011678569278350515,97000.0,0.0,inf
6.875133885,1.25,-0.12878787878787878,5.819369572164949e-05,97000.0,21479.98996281257,4.6554956577319595e-05
8.554247015000001,2.5,-0.12878787878787878,6.241102025773197e-05,97000.0,40057.02822475939,2.496440810309279e-05
9.922101135,3.75,-0.12878787878787878,6.370890860824742e-05,97000.0,58861.46979944567,1.6989042295532646e-05
11.250238150000001,5.0,-0.12878787878787878,6.451892577319589e-05,97000.0,77496.64056057841,1.2903785154639177e-05
11.2502308,0.0,-0.13636363636363635,0.00011598176082474228,97000.0,0.0,inf
6.875131995,1.25,-0.13636363636363635,5.777016025773196e-05,97000.0,21637.468105044765,4.621612820618557e-05
8.47614518,2.5,-0.13636363636363635,6.156909103092782e-05,97000.0,40604.789808317655,2.462763641237113e-05
9.844115145,3.75,-0.13636363636363635,6.285890355670103e-05,97000.0,59657.41983738808,1.676237428178694e-05
11.1721275,5.0,-0.13636363636363635,6.366692268041238e-05,97000.0,78533.71561710942,1.2733384536082475e-05
11.1721322,0.0,-0.14393939393939395,0.0001151766206185567,97000.0,0.0,inf
6.719129425,1.25,-0.14393939393939395,5.660065798969073e-05,97000.0,22084.548915096988,4.528052639175258e-05
8.359128405,2.5,-0.14393939393939395,6.060218922680412e-05,97000.0,41252.63512583238,2.424087569072165e-05
9.765093135,3.75,-0.14393939393939395,6.191478850515465e-05,97000.0,60567.11313304087,1.651061026804124e-05
11.09418355,5.0,-0.14393939393939395,6.269326701030928e-05,97000.0,79753.3808403668,1.2538653402061856e-05
11.09417805,0.0,-0.15151515151515152,0.00011437296958762886,97000.0,0.0,inf
6.719129499999999,1.25,-0.15151515151515152,5.6155940206185565e-05,97000.0,22259.44388804504,4.4924752164948454e-05
8.281167799999999,2.5,-0.15151515151515152,5.9739334536082455e-05,97000.0,41848.47419902216,2.3895733814432983e-05
9.687081765,3.75,-0.15151515151515152,6.1021709432989694e-05,97000.0,61453.53899202087,1.6272455848797253e-05
11.016204,5.0,-0.15151515151515152,6.179463402061856e-05,97000.0,80913.17440818061,1.235892680412371e-05
11.016202750000001,0.0,-0.1590909090909091,0.00011356910051546394,97000.0,0.0,inf
6.562198355,1.25,-0.1590909090909091,5.497506448453607e-05,97000.0,22737.581332926173,4.398005158762886e-05
8.203179630000001,2.5,-0.1590909090909091,5.878864051546393e-05,97000.0,42525.22218713993,2.351545620618557e-05
9.570145775,3.75,-0.1590909090909091,6.0022402319587634e-05,97000.0,62476.67296009293,1.6005973951890034e-05
10.898167149999999,5.0,-0.1590909090909091,6.080392268041236e-05,97000.0,82231.53670989588,1.2160784536082473e-05
10.898170050000001,0.0,-0.16666666666666669,0.00011235226855670104,97000.0,0.0,inf
6.562207625,1.25,-0.16666666666666669,5.452475386597939e-05,97000.0,22925.36712907447,4.361980309278351e-05
8.125154725,2.5,-0.16666666666666669,5.796226108247422e-05,97000.0,43131.51270000944,2.318490443298969e-05
9.49214669,3.75,-0.16666666666666669,5.918643597938144e-05,97000.0,63359.11155904663,1.5783049594501718e-05
10.8202036,5.0,-0.16666666666666669,5.996532989690721e-05,97000.0,83381.51409482835,1.199306597938144e-05
10.8202003,0.0,-0.17424242424242425,0.00011154845670103093,97000.0,0.0,inf
6.40620026,1.25,-0.17424242424242425,5.3381826391752584e-05,97000.0,23416.20893273002,4.2705461113402065e-05
8.047147384999999,2.5,-0.17424242424242425,5.7053449845360815e-05,97000.0,43818.559732602786,2.2821379938144325e-05
9.37516344,3.75,-0.17424242424242425,5.8226376701030925e-05,97000.0,64403.80137776295,1.552703378694158e-05
10.70314775,5.0,-0.17424242424242425,5.8996995360824744e-05,97000.0,84750.07870180633,1.1799399072164949e-05
10.703136350000001,0.0,-0.18181818181818182,0.00011034161185567011,97000.0,0.0,inf
6.406193915,1.25,-0.18181818181818182,5.2880062525773196e-05,97000.0,23638.398676074994,4.2304050020618554e-05
7.969127275,2.5,-0.18181818181818182,5.6153799226804125e-05,97000.0,44520.585150481944,2.2461519690721647e-05
9.29710555,3.75,-0.18181818181818182,5.72965030927835e-05,97000.0,65449.02040404474,1.5279067491408933e-05
10.62515915,5.0,-0.18181818181818182,5.804792216494845e-05,97000.0,86135.72740454077,1.1609584432989691e-05
10.62515285,0.0,-0.1893939393939394,0.00010953765824742267,97000.0,0.0,inf
6.25034245,1.25,-0.1893939393939394,5.1818012886597935e-05,97000.0,24122.88566015808,4.145441030927835e-05
7.89016724,2.5,-0.1893939393939394,5.53580787628866e-05,97000.0,45160.526807806425,2.214323150515464e-05
9.219114035,3.75,-0.1893939393939394,5.649019262886598e-05,97000.0,66383.20433136182,1.5064051367697597e-05
10.54716545,5.0,-0.1893939393939394,5.724155721649484e-05,97000.0,87349.12610936431,1.1448311443298967e-05
10.54716285,0.0,-0.19696969696969696,0.00010873363762886597,97000.0,0.0,inf
6.250348454999999,1.25,-0.19696969696969696,5.13082593298969e-05,97000.0,24362.549350249254,4.104660746391752e-05
7.812164344999999,2.5,-0.19696969696969696,5.446061077319587e-05,97000.0,45904.73673553504,2.1784244309278347e-05
9.140210485,3.75,-0.19696969696969696,5.557714932989692e-05,97000.0,67473.77375799917,1.482057315463918e-05
10.46910755,5.0,-0.19696969696969696,5.6318621134020627e-05,97000.0,88780.58267977781,1.1263724226804125e-05
10.46910965,0.0,-0.20454545454545456,0.00010792896546391753,97000.0,0.0,inf
6.17213717,1.25,-0.20454545454545456,5.05581924742268e-05,97000.0,24723.98515111505,4.0446553979381444e-05
7.73414822,2.5,-0.20454545454545456,5.367819041237113e-05,97000.0,46573.85021354649,2.147127616494845e-05
9.062104184999999,3.75,-0.20454545454545456,5.47798524226804e-05,97000.0,68455.82516478986,1.4607960646048108e-05
10.39110885,5.0,-0.20454545454545456,5.5498737113402064e-05,97000.0,90092.14011092478,1.1099747422680413e-05
10.39110895,0.0,-0.21212121212121213,0.00010712483453608246,97000.0,0.0,inf
6.0941366200000004,1.25,-0.21212121212121213,4.974496824742269e-05,97000.0,25128.169622759044,3.9795974597938154e-05
7.617121465,2.5,-0.21212121212121213,5.2737138814433e-05,97000.0,47404.92291014857,2.10948555257732e-05
8.984133765,3.75,-0.21212121212121213,5.3856548608247414e-05,97000.0,69629.41549183747,1.4361746295532642e-05
10.312154150000001,5.0,-0.21212121212121213,5.457193917525775e-05,97000.0,91622.17937578695,1.0914387835051549e-05
10.3121451,0.0,-0.2196969696969697,0.00010631077422680413,97000.0,0.0,inf
6.015173905,1.25,-0.2196969696969697,4.899273149484536e-05,97000.0,25513.988746096253,3.919418519587629e-05
7.539111045,2.5,-0.2196969696969697,5.1963710257731966e-05,97000.0,48110.49841515139,2.0785484103092786e-05
8.906216,3.75,-0.2196969696969697,5.307922989690722e-05,97000.0,70649.10337402055,1.4154461305841925e-05
10.234126700000001,5.0,-0.2196969696969697,5.3799170103092796e-05,97000.0,92938.23660139622,1.0759834020618559e-05
10.23412535,0.0,-0.2272727272727273,0.00010550644690721649,97000.0,0.0,inf
5.93714207,1.25,-0.2272727272727273,4.8205938350515464e-05,97000.0,25930.415271890124,3.856475068041237e-05
7.46109549,2.5,-0.2272727272727273,5.111157360824742e-05,97000.0,48912.600875129334,2.0444629443298965e-05
8.8281016,3.75,-0.2272727272727273,5.220275979381443e-05,97000.0,71835.28255615984,1.3920735945017181e-05
10.15611985,5.0,-0.2272727272727273,5.2907595360824734e-05,97000.0,94504.38950968152,1.0581519072164948e-05
10.15611535,0.0,-0.23484848484848486,0.00010470222010309279,97000.0,0.0,inf
5.85912104,1.25,-0.23484848484848486,4.741034319587628e-05,97000.0,26365.554765879107,3.7928274556701023e-05
7.344121084999999,2.5,-0.23484848484848486,5.020982252577319e-05,97000.0,49791.0543044984,2.0083929010309277e-05
8.750072935,3.75,-0.23484848484848486,5.132188850515465e-05,97000.0,73068.23870332362,1.3685836934707905e-05
10.039117300000001,5.0,-0.23484848484848486,5.199217061855671e-05,97000.0,96168.32574048048,1.0398434123711342e-05
10.03912195,0.0,-0.24242424242424243,0.00010349610257731959,97000.0,0.0,inf
5.781225185,1.25,-0.24242424242424243,4.667114932989691e-05,97000.0,26783.141575630038,3.733691946391753e-05
7.26511644,2.5,-0.24242424242424243,4.9430127731958765e-05,97000.0,50576.442236940435,1.9772051092783507e-05
8.672159045,3.75,-0.24242424242424243,5.051948860824743e-05,97000.0,74228.7798888725,1.3471863628865982e-05
9.961054325,5.0,-0.24242424242424243,5.117192190721649e-05,97000.0,97709.83409741502,1.0234384381443298e-05
9.961059365,0.0,-0.25,0.00010269133365979381,97000.0,0.0,inf
5.70315028,1.25,-0.25,4.584806989690722e-05,97000.0,27263.961226954976,3.6678455917525775e-05
7.187060815,2.5,-0.25,4.854272077319587e-05,97000.0,51501.02755221829,1.941708830927835e-05
8.55422512,3.75,-0.25,4.958874195876288e-05,97000.0,75622.00313769672,1.3223664522336768e-05
9.8441062,5.0,-0.25,5.024589072164949e-05,97000.0,99510.62521110101,1.0049178144329898e-05
9.844107765,0.0,-0.25757575757575757,0.00010148564706185567,97000.0,0.0,inf
5.6251640300000005,1.25,-0.25757575757575757,4.5102770927835055e-05,97000.0,27714.48348483986,3.6082216742268045e-05
7.109129635,2.5,-0.25757575757575757,4.776115654639176e-05,97000.0,52343.79107992662,1.9104462618556705e-05
8.515103270000001,3.75,-0.25757575757575757,4.881949041237114e-05,97000.0,76813.58343408124,1.3018530776632305e-05
9.804101674999998,5.0,-0.25757575757575757,4.946829974226802e-05,97000.0,101074.83026605353,9.893659948453605e-06
9.804105195,0.0,-0.26515151515151514,0.00010107324943298968,97000.0,0.0,inf
5.547194175,1.25,-0.26515151515151514,4.430198994845361e-05,97000.0,28215.436856321892,3.5441591958762886e-05
7.031131235,2.5,-0.26515151515151514,4.690203231958763e-05,97000.0,53302.594287709115,1.8760812927835053e-05
8.398137705,3.75,-0.26515151515151514,4.792449850515464e-05,97000.0,78248.08014624627,1.2779866268041238e-05
9.687076945000001,5.0,-0.26515151515151514,4.8577249432989704e-05,97000.0,102928.84134778549,9.71544988659794e-06
9.687080985,0.0,-0.2727272727272727,9.986681427835051e-05,97000.0,0.0,inf
5.469179125,1.25,-0.2727272727272727,4.358709304123711e-05,97000.0,28678.21441584538,3.486967443298969e-05
6.953136545,2.5,-0.2727272727272727,4.616993963917525e-05,97000.0,54147.785757093494,1.84679758556701e-05
8.35911827,3.75,-0.2727272727272727,4.720972701030928e-05,97000.0,79432.78297671802,1.2589260536082474e-05
9.648113930000001,5.0,-0.2727272727272727,4.78528456701031e-05,97000.0,104486.99403312261,9.57056913402062e-06
9.648117585,0.0,-0.28030303030303033,9.946512974226803e-05,97000.0,0.0,inf
5.390146165,1.25,-0.28030303030303033,4.281018417525773e-05,97000.0,29198.65971336888,3.4248147340206186e-05
6.875098885,2.5,-0.28030303030303033,4.533463798969072e-05,97000.0,55145.4717818307,1.813385519587629e-05
8.242184355,3.75,-0.28030303030303033,4.6326545927835046e-05,97000.0,80947.10980269378,1.2353745580756012e-05
9.531046435,5.0,-0.28030303030303033,4.6958180257731966e-05,97000.0,106477.72065606648,9.391636051546393e-06
9.531047350000001,0.0,-0.2878787878787879,9.82582201030928e-05,97000.0,0.0,inf
5.312178395,1.25,-0.2878787878787879,4.20192643814433e-05,97000.0,29748.259956498183,3.3615411505154634e-05
6.797108605,2.5,-0.2878787878787879,4.4490011391752575e-05,97000.0,56192.388398970885,1.7796004556701032e-05
8.164140425,3.75,-0.2878787878787879,4.5461045103092773e-05,97000.0,82488.20482450552,1.2122945360824738e-05
9.453098109999999,5.0,-0.2878787878787879,4.608242536082473e-05,97000.0,108501.2336232321,9.216485072164947e-06
