vbias,vds,vgs,ids,Rbias,Rfet,Gfet
6.646364185e-05,8.321e-06,-1.1,1.1649497465437789e-08,4991.0,714.27973821936,0.0014000117131880527
0.0500711825,0.001220407,-1.1,9.787773091564816e-06,4991.0,124.68689134730317,0.008020089274778673
0.1010488425,0.0024583675,-1.1,1.9753651572831096e-05,4991.0,124.451294027136,0.008035272013981267
0.151051942,0.0036746425,-1.1,2.952861140052094e-05,4991.0,124.4434575726501,0.008035778011199986
0.202148903,0.0049199905000000006,-1.1,3.951691294329794e-05,4991.0,124.50341217340537,0.008031908383420239
0.2520350205,0.006138097,-1.1,4.9268067220997794e-05,4991.0,124.58570725875715,0.00802660290656824
0.303086509,0.0073858655,-1.1,5.924677289120417e-05,4991.0,124.6627476835369,0.008021642540228247
0.35307473899999997,0.008609654500000001,-1.1,6.901724794630333e-05,4991.0,124.74641855755344,0.00801626220265904
0.40407921150000004,0.0098597915,-1.1,7.898605890603087e-05,4991.0,124.82951594951864,0.008010925880738033
0.45411361100000003,0.011088102499999999,-1.1,8.87648784812663e-05,4991.0,124.91542476836858,0.008005416479624562
0.5050868985000001,0.012341870000000001,-1.1,9.872671378481269e-05,4991.0,125.01044070909381,0.007999331850425638
0.5551186115,0.0135746145,-1.1,0.00010850410679222601,4991.0,125.10691900348033,0.007993163031791881
0.6061451339999999,0.014835646000000001,-1.1,0.00011847515287517531,4991.0,125.22158140307062,0.007985843884059738
0.656091014,0.016073557,-1.1,0.00012823431316369465,4991.0,125.34521068071429,0.007977967363645437
0.7071067325,0.017340022,-1.1,0.0001382021058906031,4991.0,125.4685801512017,0.007970122868967703
0.75719626,0.0185840405,-1.1,0.00014798882378280905,4991.0,125.57732418546861,0.007963221118830915
0.8081418155,0.01985146,-1.1,0.00015794236736125023,4991.0,125.68799829747508,0.007956209133295497
0.858220923,0.021097707,-1.1,0.0001677265509917852,4991.0,125.78632825421487,0.00794998958852662
0.9091337525000001,0.022369317,-1.1,0.0001776726979563214,4991.0,125.90182542001594,0.007942696594461127
0.959182491,0.023622301499999998,-1.1,0.00018744944690442797,4991.0,126.01958496065312,0.007935274507626955
1.01023065,0.024901740999999998,-1.1,0.00019742113985173312,4991.0,126.13512929112687,0.007928005509804843
1.060202865,0.026154130499999997,-1.1,0.00020718267571628933,4991.0,126.23705340988451,0.007921604417944208
1.1112178199999998,0.0274362395,-1.1,0.00021714718102584647,4991.0,126.34858702924785,0.007914611659001099
1.16126935,0.028696252999999998,-1.1,0.00022692308094570229,4991.0,126.45806182609684,0.007907759976387938
1.2122121149999998,0.0299834515,-1.1,0.00023687210248447203,4991.0,126.58076314396519,0.007900094573317286
1.26218594,0.031251047500000004,-1.1,0.0002466309141454618,4991.0,126.71180175559125,0.00789192471533832
1.31321882,0.0325429195,-1.1,0.00025659705479863753,4991.0,126.82499230374174,0.00788488121966554
1.36322271,0.0338146845,-1.1,0.0002663610549989982,4991.0,126.95055776876681,0.007877082366360633
1.4142510499999998,0.035115839499999996,-1.1,0.00027632442606692045,4991.0,127.08192322996308,0.007868939771948795
1.46424961,0.0363896135,-1.1,0.00028608695582047687,4991.0,127.19773746984444,0.007861775058987006
1.515288255,0.037689371,-1.1,0.00029605267160889604,4991.0,127.30630260884793,0.00785507064070918
1.5652937150000001,0.0389624825,-1.1,0.0003058167165898618,4991.0,127.4046851802857,0.007849004913633566
1.616274615,0.0402629545,-1.1,0.0003157707193949109,4991.0,127.50692837243763,0.00784271108060167
1.666334935,0.0415424265,-1.1,0.00032554448176718093,4991.0,127.60906366617458,0.007836433959079904
1.717362705,0.0428521495,-1.1,0.0003355060219394911,4991.0,127.72393548193432,0.007829386060073627
1.76727998,0.0441410115,-1.1,0.0003452492423362052,4991.0,127.8525948422366,0.00782150726963303
1.8183944900000002,0.045459249,-1.1,0.0003552264558204769,4991.0,127.97258834509228,0.007814173433011991
1.86834448,0.046750712,-1.1,0.00036497570987778,4991.0,128.09266681241743,0.007806848158329225
1.919383135,0.048071250499999996,-1.1,0.00037493726397515526,4991.0,128.21145060466802,0.007799615364180204
1.9693380550000001,0.0493650425,-1.1,0.00038468703917050694,4991.0,128.32520327808513,0.007792701468260803
2.0203426799999997,0.050692257500000004,-1.1,0.00039464043728711676,4991.0,128.45175686626192,0.007785023921791542
2.07040007,0.051999954,-1.1,0.00040440795752354235,4991.0,128.5829149318182,0.007777082985949225
2.1213979800000002,0.053337674,-1.1,0.0004143579054297737,4991.0,128.72367897669997,0.007768578461628712
2.17138409,0.054658319,-1.1,0.0004241085495892607,4991.0,128.87813521546622,0.0077592680738911984
2.222420625,0.056003256,-1.1,0.00043406479042276095,4991.0,129.02049932558495,0.007750706323624486
2.27244884,0.057325663,-1.1,0.0004438235177319175,4991.0,129.16319372383145,0.007742143649205025
2.323391975,0.058668205,-1.1,0.00045376152474454015,4991.0,129.2930356601503,0.007734368637058865
2.3734352850000002,0.0599876195,-1.1,0.0004635238760769385,4991.0,129.4164607176414,0.007726992335092386
2.424423475,0.061331735,-1.1,0.0004734705950711281,4991.0,129.53652378514934,0.007719830444567206
2.474562385,0.062652417,-1.1,0.00048325184692446407,4991.0,129.6475479581417,0.007713219538273583
2.525490025,0.064000902,-1.1,0.0004931855586054898,4991.0,129.77042997967374,0.007705915747960706
2.57646261,0.06535722699999999,-1.1,0.0005031267046684032,4991.0,129.9021228520858,0.0076981036032695085
2.626526785,0.0666912925,-1.1,0.0005128903010418754,4991.0,130.03032493405433,0.0076905137359854795
2.67758193,0.068051894,-1.1,0.0005228471320376678,4991.0,130.15638765155796,0.007683065103781943
2.727529595,0.0693864825,-1.1,0.0005325872796032859,4991.0,130.28189961969176,0.0076756633340404005
2.77860902,0.070761845,-1.1,0.0005425460178320979,4991.0,130.4255172358462,0.0076672113033810505
2.828580775,0.072107454,-1.1,0.0005522887840112202,4991.0,130.56114135849458,0.007659246768180446
2.879589215,0.07348156,-1.1,0.0005622335513925066,4991.0,130.69579326599282,0.007651355678792157
2.92958655,0.07483218550000001,-1.1,0.000571980437687838,4991.0,130.82997349087688,0.007643508389686654
2.98059338,0.0762121995,-1.1,0.000581923698757764,4991.0,130.9659662644615,0.00763557150397902
3.0306407,0.0775617035,-1.1,0.0005916808247846124,4991.0,131.0870662882045,0.0076285176586485415
3.08165707,0.0789394405,-1.1,0.0006016264535163294,4991.0,131.21005573910892,0.007621367084763279
3.131602985,0.08029301999999999,-1.1,0.000611362445401723,4991.0,131.33456365191006,0.007614141869389433
3.182665145,0.081679368,-1.1,0.0006213155233420157,4991.0,131.46197854618538,0.007606762130456441
3.2326981750000003,0.08304884700000001,-1.1,0.0006310657840112202,4991.0,131.6009346476047,0.007598730226937649
3.283657575,0.084450557,-1.1,0.0006409951949509116,4991.0,131.74912646024958,0.0075901831523847935
3.333681265,0.08582595800000001,-1.1,0.0006507423977158886,4991.0,131.8892979791233,0.007582116330305204
3.384653385,0.0872290705,-1.1,0.000660674076237227,4991.0,132.0304120252462,0.007574012567716482
3.4347953,0.08861261849999999,-1.1,0.0006704433343017431,4991.0,132.17018346865768,0.007566002964936007
3.48570194,0.090019583,-1.1,0.0006803611214185534,4991.0,132.31147425400957,0.007557923495585992
3.5357220949999997,0.09140335299999999,-1.1,0.0006901059390903625,4991.0,132.44829209915207,0.007550116231407426
3.5867608950000003,0.0928189525,-1.1,0.0007000484757563615,4991.0,132.58932161764162,0.0075420854997944676
3.636804045,0.094222689,-1.1,0.0007097939002203967,4991.0,132.74654652673556,0.007533152659444869
3.687713575,0.09564915,-1.1,0.0007197083600480866,4991.0,132.8998734898804,0.0075244616397331975
3.7377261649999998,0.09705918250000001,-1.1,0.0007294464000200361,4991.0,133.05869012080123,0.007515480567951787
3.788761695,0.098505652,-1.1,0.0007393820963734722,4991.0,133.22699113645217,0.007505986523224801
3.83878719,0.09992340250000001,-1.1,0.0007491211756161091,4991.0,133.38750225264792,0.007496954235681767
3.889776865,0.101369775,-1.1,0.0007590477038669605,4991.0,133.5486221532227,0.007487909525960382
3.9397681799999997,0.102788475,-1.1,0.0007687797445401723,4991.0,133.70341210209764,0.007479240688610005
3.99082091,0.10423529000000001,-1.1,0.0007787188178721699,4991.0,133.85484928285203,0.007470779021885677
4.0408398850000005,0.10565577500000001,-1.1,0.000788456042877179,4991.0,134.00338034628828,0.00746249831471284
4.091827575,0.107103665,-1.1,0.0007983818693648567,4991.0,134.15092339860504,0.007454290843967448
4.141851819999999,0.10852731,-1.1,0.0008081195171308353,4991.0,134.29611301224065,0.007446231894357607
4.19291387,0.109979675,-1.1,0.0008180593458224805,4991.0,134.43972685065526,0.007438277534667023
4.242890545,0.111406705,-1.1,0.0008277867842115807,4991.0,134.58381690172607,0.007430313859579463
4.29391355,0.112887075,-1.1,0.0008377131787216991,4991.0,134.75623622426355,0.007420806843668322
4.343898615,0.114337035,-1.1,0.0008474377038669604,4991.0,134.920873213767,0.007411751615449539
4.39501089,0.115824725,-1.1,0.000857380517932278,4991.0,135.09138891950965,0.007402396318508661
4.44492629,0.11727615999999999,-1.1,0.0008670907894209576,4991.0,135.25245733300534,0.007393581009311336
4.495920835,0.118752635,-1.1,0.000877012262071729,4991.0,135.4059003912621,0.007385202543688644
4.545947740000001,0.12021828500000001,-1.1,0.0008867420266479665,4991.0,135.5730092713044,0.007376099456484232
4.5969864650000005,0.121708,-1.1,0.0008966696984572232,4991.0,135.73337005745404,0.007367385040073152
4.64696037,0.123173745,-1.1,0.0009063888248847927,4991.0,135.89503932338982,0.007358620336540005
4.697949225,0.124677645,-1.1,0.0009163036625926669,4991.0,136.06585904854572,0.007349382181486239
4.7479927,0.12615409,-1.1,0.000926034584251653,4991.0,136.23043042387843,0.007340503857240404
4.79899225,0.12765008,-1.1,0.0009359531496694051,4991.0,136.38511718785094,0.0073321783242862445
4.84899719,0.129120405,-1.1,0.0009456775766379483,4991.0,136.5374501730769,0.007323997912165381
4.899994415,0.13062587,-1.1,0.00095559377780004,4991.0,136.69602401631977,0.007315501728716065
4.950076375,0.1321068,-1.1,0.000965331511721098,4991.0,136.85122509309326,0.007307205319643638
5.001059125,0.133619175,-1.1,0.0009752434281707074,4991.0,137.01110014207777,0.0072986787126227
0.0013673662275,1.4089500000000001e-05,-1.1444444444444446,2.7114340362652776e-07,4991.0,51.96327777682854,0.019244359532029364
0.050156932749999994,0.0013009204999999999,-1.1444444444444446,9.78882233019435e-06,4991.0,132.89857105560225,0.007524535381058529
0.10109198650000001,0.002619212,-1.1444444444444446,1.9730069024243643e-05,4991.0,132.75229786482757,0.007532826294413604
0.151083317,0.003914646000000001,-1.1444444444444446,2.9486810458825887e-05,4991.0,132.7592214650087,0.007532433445789449
0.20217662749999998,0.005241529,-1.1444444444444446,3.945804417952314e-05,4991.0,132.83803363776724,0.0075279644888968725
0.2520581915,0.006539605,-1.1444444444444446,4.919226337407332e-05,4991.0,132.9397053815313,0.007522207132399177
0.30310312699999997,0.0078710135,-1.1444444444444446,5.915289791624924e-05,4991.0,133.06217915382706,0.007515283503992115
0.35309576249999997,0.00917667,-1.1444444444444446,6.890785263474254e-05,4991.0,133.17306590066673,0.007509025892261849
0.40409710249999997,0.010512094999999999,-1.1444444444444446,7.885894760569024e-05,4991.0,133.30250173464748,0.007501734678547926
0.4541325235,0.0118242845,-1.1444444444444446,8.86211658986175e-05,4991.0,133.42506138462414,0.007494843844345719
0.505106752,0.0131643545,-1.1444444444444446,9.85658981166099e-05,4991.0,133.55891592876986,0.007487332410913875
0.5551352885,0.0144819515,-1.1444444444444446,0.0001083256535764376,4991.0,133.6890295315055,0.007480045322375068
0.606166159,0.015828442999999998,-1.1444444444444446,0.00011828044800641155,4991.0,133.82129732161647,0.007472652111544488
0.656110856,0.017149781500000003,-1.1444444444444446,0.0001280226556802244,4991.0,133.95895756792305,0.007464972989902196
0.7071287625,0.018502863,-1.1444444444444446,0.0001379735322580645,4991.0,134.1044379830213,0.007456874768951405
0.757220103,0.0198334075,-1.1444444444444446,0.0001477432769985975,4991.0,134.24236894507408,0.007449213000771425
0.808163434,0.0211886105,-1.1444444444444446,0.00015767878651572832,4991.0,134.37832043365233,0.007441676579770454
0.8582429515,0.022522931000000003,-1.1444444444444446,0.00016744540583049487,4991.0,134.50910097109494,0.007434441184874865
0.9091534575,0.0238817365,-1.1444444444444446,0.00017737361671007814,4991.0,134.640861154877,0.007427165805555141
0.9592011954999999,0.025220379,-1.1444444444444446,0.00018713300270486877,4991.0,134.7724807247152,0.007419912393262161
1.01025065,0.026588634,-1.1444444444444446,0.00019708716008815866,4991.0,134.90799699029958,0.00741245902621995
1.060226695,0.027933502,-1.1444444444444446,0.0002068309342817071,4991.0,135.05475908141534,0.007404404012132352
1.11123935,0.029310611,-1.1444444444444446,0.00021677594450010014,4991.0,135.2115478845784,0.007395818002569108
1.16129474,0.030664925500000002,-1.1444444444444446,0.00022653372360248447,4991.0,135.36582991859535,0.007387388682959117
1.21223219,0.032047132500000006,-1.1444444444444446,0.00023646264425966737,4991.0,135.5272525194635,0.007378589777405742
1.262205255,0.033407444499999994,-1.1444444444444446,0.0002462027270086155,4991.0,135.6907980098488,0.0073696965060771275
1.313239595,0.034797523999999996,-1.1444444444444446,0.0002561494832698858,4991.0,135.84850359950332,0.0073611410762985845
1.363239745,0.036161092,-1.1444444444444446,0.00026589434041274294,4991.0,135.99797552617252,0.0073530506327835156
1.4142714600000001,0.037553006,-1.1444444444444446,0.0002758402031656983,4991.0,136.14043772089946,0.007345356139151637
1.464266615,0.038919052999999995,-1.1444444444444446,0.0002855835628130635,4991.0,136.27903726894647,0.007337885708911354
1.515308165,0.0403227375,-1.1444444444444446,0.00029552903776798237,4991.0,136.4425567265477,0.007329091626479537
1.565308735,0.041697803000000006,-1.1444444444444446,0.00030527167541574837,4991.0,136.59243997403925,0.0073210493947546435
1.61628832,0.0430988965,-1.1444444444444446,0.00031520525415748346,4991.0,136.73279849093774,0.007313534214442903
1.666354985,0.044478683500000005,-1.1444444444444446,0.0003249601886395512,4991.0,136.87425430853673,0.007305975875827152
1.7173847599999998,0.045889229000000004,-1.1444444444444446,0.0003349019296734121,4991.0,137.02288620656805,0.007298050914592879
1.76730053,0.047275644000000006,-1.1444444444444446,0.0003446253027449409,4991.0,137.179840317729,0.007289700860446044
1.818414405,0.048699488,-1.1444444444444446,0.00035458122961330393,4991.0,137.34367172540482,0.007281005287228151
1.868361385,0.0500941815,-1.1444444444444446,0.0003643091972550591,4991.0,137.5045754470157,0.007272485273665148
1.9194014849999999,0.051520964,-1.1444444444444446,0.00037424975375676214,4991.0,137.66465704473185,0.0072640285565456824
1.96935241,0.052922924999999996,-1.1444444444444446,0.00038397705570026046,4991.0,137.8283525391491,0.007255401240582612
2.020361485,0.054359975500000005,-1.1444444444444446,0.00039390933870967745,4991.0,138.0012357109027,0.007246311925024274
2.0704214,0.0557767155,-1.1444444444444446,0.0004036555168302945,4991.0,138.17899960339136,0.007236989722535643
2.12141563,0.057221892499999996,-1.1444444444444446,0.00041358319725505916,4991.0,138.35642472851944,0.00722770917188835
2.17140161,0.0586408025,-1.1444444444444446,0.0004233141269284713,4991.0,138.5278656431627,0.0072187642201600385
2.2224354350000004,0.0600927825,-1.1444444444444446,0.00043324837757964345,4991.0,138.70284485705483,0.007209657458940988
2.27246544,0.061516671,-1.1444444444444446,0.0004429871306351432,4991.0,138.86785133418894,0.007201090752052288
2.3234074749999998,0.0629698535,-1.1444444444444446,0.00045290274924864754,4991.0,139.03614761549838,0.007192374192972317
2.37345233,0.0643996365,-1.1444444444444446,0.0004626432966339411,4991.0,139.19932909123105,0.007183942670762453
2.42444232,0.06586093000000001,-1.1444444444444446,0.00047256689841715084,4991.0,139.36847930017802,0.007175223587294481
2.4745807400000004,0.0673026645,-1.1444444444444446,0.00048232379793628535,4991.0,139.53834496238278,0.007166488897869495
2.525504615,0.0687754135,-1.1444444444444446,0.0004922318576437587,4991.0,139.72158126704304,0.007157090486177285
2.57647696,0.0702510705,-1.1444444444444446,0.0005021490461831296,4991.0,139.90083429209585,0.00714792020405055
2.62654271,0.071704324,-1.1444444444444446,0.0005118890775395712,4991.0,140.0778550397121,0.007138887154693366
2.6775998149999998,0.07319075450000001,-1.1444444444444446,0.0005218210900621117,4991.0,140.26024607646312,0.007129603918239586
2.727550385,0.0746428415,-1.1444444444444446,0.0005315382775996794,4991.0,140.42797037510104,0.007121088464989363
2.778623185,0.076124864,-1.1444444444444446,0.0005414743179723502,4991.0,140.58813405050032,0.007112975833656008
2.8285960350000003,0.077572276,-1.1444444444444446,0.0005511969062312163,4991.0,140.73423693611943,0.007105591516113519
2.87960761,0.079053839,-1.1444444444444446,0.0005611207715888599,4991.0,140.88560431678997,0.007097957274267983
2.929597655,0.0805243575,-1.1444444444444446,0.0005708421754157483,4991.0,141.0623828580177,0.007089062156326405
2.98060872,0.08202341699999999,-1.1444444444444446,0.0005807624329793629,4991.0,141.23402675894954,0.0070804467092533225
3.0306525349999998,0.0835021095,-1.1444444444444446,0.0005904929724504107,4991.0,141.41084381323856,0.007071593472143487
3.08166772,0.085013923,-1.1444444444444446,0.0006004115001001804,4991.0,141.5927626066709,0.007062507868272123
3.131616415,0.0865003365,-1.1444444444444446,0.0006101214342817071,4991.0,141.7756066902262,0.007053399546968319
3.18267852,0.088024671,-1.1444444444444446,0.0006200468541374475,4991.0,141.96454737674927,0.007044012174012527
3.23271542,0.0895220005,-1.1444444444444446,0.0006297722739931876,4991.0,142.14979635792665,0.007034832448736304
3.283677625,0.0910423555,-1.1444444444444446,0.0006396784751552796,4991.0,142.32518215952132,0.007026163499858916
3.3337015,0.0925401095,-1.1444444444444446,0.0006494012002604689,4991.0,142.5006751802784,0.007017510609931458
3.384672695,0.094080731,-1.1444444444444446,0.0006593051420557002,4991.0,142.69679545749963,0.007007865851464316
3.4348189749999998,0.09560130650000001,-1.1444444444444446,0.000669047819775596,4991.0,142.89158962070223,0.006998312515484251
3.485721515,0.09715043000000001,-1.1444444444444446,0.0006789363023442195,4991.0,143.0921128603091,0.006988505376087574
3.5357459149999997,0.09867603999999999,-1.1444444444444446,0.0006886535513925064,4991.0,143.28836292279337,0.006978933805942217
3.58678368,0.10023484999999999,-1.1444444444444446,0.0006985671869364856,4991.0,143.4863415780699,0.006969304457845607
3.63681827,0.101762675,-1.1444444444444446,0.0007082860338609498,4991.0,143.6745469133138,0.0069601750726477046
3.6877259249999996,0.10331905999999999,-1.1444444444444446,0.0007181740863554398,4991.0,143.8635310894038,0.006951031942755189
3.737737575,0.10485015,-1.1444444444444446,0.0007278876828290924,4991.0,144.0471551771247,0.0069421711159124945
3.78877077,0.10641397,-1.1444444444444446,0.0007377993989180525,4991.0,144.23157589454667,0.006933294556326134
3.838793225,0.10795621,-1.1444444444444446,0.0007475129262672811,4991.0,144.42052599555868,0.0069242235001328875
3.8897869800000002,0.109534385,-1.1444444444444446,0.0007574138639551193,4991.0,144.61629264088896,0.006914850199369991
3.939774495,0.111083635,-1.1444444444444446,0.0007671189861751152,4991.0,144.80626474110267,0.006905778571029974
3.990827295,0.112671155,-1.1444444444444446,0.000777029881787217,4991.0,145.00234500743954,0.006896440191699615
4.040851605,0.114234635,-1.1444444444444446,0.0007867395251452615,4991.0,145.20007111490682,0.006887048968513459
4.091843474999999,0.11583980999999999,-1.1444444444444446,0.0007966346754157482,4991.0,145.41145844492073,0.006877037137886779
4.1418624699999995,0.11741443,-1.1444444444444446,0.0008063410218393107,4991.0,145.61386165393256,0.006867478059036787
