vbias,vds,vgs,ids,Rbias,Rfet,Gfet
6.32390381e-05,8.741e-06,-1.1,1.0919262292125825e-08,4991.0,800.5119545762144,0.0012492005825564382
0.0500625579,0.0011983415,-1.1,9.790466119014225e-06,4991.0,122.39881997780283,0.008170013405205631
0.10104039749999999,0.002413722,-1.1,1.9760904728511317e-05,4991.0,122.1463305026438,0.008186901693115992
0.151044695,0.003606652,-1.1,2.954078200761371e-05,4991.0,122.09060677779071,0.0081906383004553
0.202142291,0.004827777,-1.1,3.953406411540773e-05,4991.0,122.11689104127436,0.008188875359281866
0.25202647300000003,0.0060210895,-1.1,4.928979833700662e-05,4991.0,122.15691082427062,0.008186192604678375
0.3030757035,0.007245161,-1.1,5.927279953917051e-05,4991.0,122.23416231946368,0.00818101896412937
0.353064899,0.0084448095,-1.1,6.904830484872772e-05,4991.0,122.30292283787477,0.008176419473846949
0.40406854999999997,0.009671068500000001,-1.1,7.902173542376277e-05,4991.0,122.38491660728317,0.008170941548367975
0.454106695,0.010876047,-1.1,8.880598036465639e-05,4991.0,122.46975885340852,0.008165281040497194
0.505081111,0.012104908,-1.1,9.877303205770386e-05,4991.0,122.55276311582935,0.008159750743888666
0.5551155845,0.013313354,-1.1,0.00010855584662392306,4991.0,122.64059849417693,0.00815390671831629
0.606141391,0.014547434,-1.1,0.00011853214926868362,4991.0,122.72985928083104,0.008147976424480332
0.656083295,0.015756100500000002,-1.1,0.00012829637237026648,4991.0,122.81017934417903,0.00814264750153545
0.7071022525,0.0169919155,-1.1,0.00013827095511921458,4991.0,122.88853783753713,0.008137455433980624
0.7571922225,0.018207974000000002,-1.1,0.00014806336375475856,4991.0,122.97420197854193,0.008131786861885816
0.8081360424999999,0.019446662,-1.1,0.0001580223162692847,4991.0,123.06275758457484,0.00812593525147322
0.8582173989999999,0.020666527,-1.1,0.00016781223642556599,4991.0,123.1526820701585,0.00812000179931374
0.9091278965,0.021908914,-1.1,0.000177763771288319,4991.0,123.2473514778523,0.008113764620570375
0.9591765555,0.0231329955,-1.1,0.00018754629533159687,4991.0,123.34552095043526,0.0081073069560575
1.010228915,0.0243832655,-1.1,0.00019752467431376474,4991.0,123.44414987500538,0.008100829411621045
1.060204615,0.0256090805,-1.1,0.00020729223291925466,4991.0,123.54095539110409,0.008094481678842576
1.111216615,0.0268622345,-1.1,0.00021726194760569024,4991.0,123.63984948138456,0.00808800725813373
1.16126942,0.028093632,-1.1,0.00022704383650571028,4991.0,123.73659832555477,0.008081683297685051
1.212211205,0.0293481835,-1.1,0.0002369992028651573,4991.0,123.83241439296275,0.008075430047149503
1.26218318,0.030581346000000002,-1.1,0.00024676454297735927,4991.0,123.92925511509104,0.00806911974958065
1.3132213400000001,0.031841366499999996,-1.1,0.0002567381233219796,4991.0,124.02274382938916,0.00806303722304065
1.363219885,0.033077748500000004,-1.1,0.0002665081419555199,4991.0,124.11533943124583,0.00805702183616034
1.414254575,0.0343421025,-1.1,0.0002764801587858145,4991.0,124.21181559941294,0.008050763892100505
1.4642503150000001,0.0355839315,-1.1,0.0002862485240432779,4991.0,124.31131870087849,0.008044319780777397
1.51529465,0.036853357,-1.1,0.00029622145722300137,4991.0,124.41150396561606,0.008037841904687308
1.56530031,0.038098917499999996,-1.1,0.00030599106241234225,4991.0,124.50990300056314,0.008031489671913705
1.61628112,0.0393700265,-1.1,0.0003159509303746744,4991.0,124.6080410439449,0.008025164280107213
1.6663435,0.0406207425,-1.1,0.00032573086706070924,4991.0,124.70645740929787,0.008018830947285348
1.71737206,0.0418971105,-1.1,0.00033569924854738527,4991.0,124.80549384990971,0.008012467794106833
1.7672894449999998,0.043149969499999996,-1.1,0.0003454497045682228,4991.0,124.9095568164781,0.008005792554922264
1.818405985,0.044434251,-1.1,0.00035543412823081546,4991.0,125.01402502109991,0.00799910249934933
1.86835269,0.045691087500000005,-1.1,0.0003651896618914045,4991.0,125.11604863991754,0.007992579775900595
1.9193906950000001,0.0469761485,-1.1,0.00037515819404928874,4991.0,125.21690648139814,0.007986142032254702
1.9693387649999998,0.048236116999999995,-1.1,0.00038491337367261067,4991.0,125.31681229924575,0.007979775272387923
2.0203489350000003,0.049526588999999996,-1.1,0.00039487524464035267,4991.0,125.42338288415162,0.00797299496317731
2.07040663,0.0507966365,-1.1,0.00040465036936485673,4991.0,125.53216392643088,0.007966085891629001
2.12140197,0.052092024,-1.1,0.00041460828411140054,4991.0,125.64154165815815,0.007959150984638274
2.1713910949999997,0.053364223,-1.1,0.0004243692390302544,4991.0,125.74950795666771,0.007952317398685902
2.222429885,0.054665730499999995,-1.1,0.0004343346332398317,4991.0,125.8608600751729,0.007945281792947626
2.272458265,0.0559424385,-1.1,0.0004441025498898017,4991.0,125.96738864454029,0.007938562597513545
2.3234036700000003,0.057245607500000004,-1.1,0.00045404890052093774,4991.0,126.07806655697476,0.007931593712599482
2.3734497599999997,0.058528893,-1.1,0.0004638190476858344,4991.0,126.1890672494422,0.007924616781763401
2.4244315299999997,0.059838118499999995,-1.1,0.0004737714709477058,4991.0,126.30164999235431,0.007917552938227925
2.474569655,0.061128866000000004,-1.1,0.00048355856321378484,4991.0,126.4146075580394,0.007910478221758357
2.525498685,0.0624418105,-1.1,0.0004934996743137648,4991.0,126.52857489081096,0.007903353063629773
2.576473875,0.0637588885,-1.1,0.000503449205870567,4991.0,126.64413362167846,0.00789614150614572
2.626530195,0.0650546635,-1.1,0.0005132189003205771,4991.0,126.75812106561986,0.00788904088821514
2.6775843249999998,0.0663772035,-1.1,0.0005231831539771588,4991.0,126.87182871889239,0.007881970411380149
2.727532845,0.06767239750000001,-1.1,0.0005329313659587257,4991.0,126.9814498125094,0.007875166029971462
2.778613065,0.069000951,-1.1,0.0005428996421558806,4991.0,127.09706480187371,0.007868002314285213
2.828588175,0.0703042055,-1.1,0.0005526515667200962,4991.0,127.21253269441515,0.007860860709393782
2.8795972450000002,0.0716359315,-1.1,0.0005626049516129032,4991.0,127.32900998228087,0.00785366979715903
2.9295921949999997,0.07294366599999999,-1.1,0.00057235995371669,4991.0,127.44369260345923,0.007846602523606232
2.9805935,0.074288347,-1.1,0.0005823091871368463,4991.0,127.5754335343189,0.00783849971970498
3.03064327,0.0756064385,-1.1,0.0005920730978761771,4991.0,127.69781091423935,0.007830987805042254
3.08166047,0.076952149,-1.1,0.0006020253097575636,4991.0,127.82211603526889,0.007823372284997052
3.13160542,0.0782669825,-1.1,0.0006117688714686435,4991.0,127.9355425719983,0.007816436151331674
3.182668435,0.07961425250000001,-1.1,0.0006217299504107394,4991.0,128.05278633819023,0.007809279505710856
3.2327006899999997,0.08093677199999999,-1.1,0.0006314894646363454,4991.0,128.16804797623803,0.007802256613796576
3.283663645,0.0822947725,-1.1,0.0006414283455219395,4991.0,128.29924507473325,0.007794278130144166
3.3336883549999996,0.083628184,-1.1,0.0006511841656982567,4991.0,128.42478119892016,0.007786659168615413
3.38465846,0.0849862075,-1.1,0.0006611244745541975,4991.0,128.54796754772542,0.00777919728391454
3.43480734,0.086324204,-1.1,0.0006709042548587457,4991.0,128.66844020563704,0.0077719135974743045
3.4857060950000003,0.087685105,-1.1,0.0006808296914446003,4991.0,128.79154082417836,0.0077644851020546805
3.5357290900000002,0.0890265645,-1.1,0.0006905835554998998,4991.0,128.9149789203356,0.007757050486879113
3.58676628,0.090419871,-1.1,0.0007005302362252054,4991.0,129.07347366935343,0.007747525278212413
3.63680613,0.091779664,-1.1,0.000710283804047285,4991.0,129.21548186376785,0.007739010725156774
3.687716075,0.09316761,-1.1,0.0007202060639150471,4991.0,129.3624348197514,0.007730219374684476
3.7377275450000003,0.09452421250000001,-1.1,0.0007299545847525546,4991.0,129.49327872506277,0.007722408528423917
3.78876399,0.0959158655,-1.1,0.0007399014475055099,4991.0,129.63329889861546,0.007714067361520184
3.83878959,0.0972898295,-1.1,0.0007496493208775796,4991.0,129.78045439447249,0.007705320532785801
3.889780735,0.09868943999999999,-1.1,0.0007595855129232619,4991.0,129.92538472751286,0.0076967253327535545
3.9397668550000002,0.10004776500000001,-1.1,0.0007693286094970947,4991.0,130.0455537009089,0.007689613151249253
3.990816095,0.10144996,-1.1,0.0007792759236625927,4991.0,130.18490231699414,0.007681382266317233
4.04083553,0.102836095,-1.1,0.0007890201232217993,4991.0,130.33393189021623,0.00767259903462689
4.091825455,0.104245565,-1.1,0.0007989540953716692,4991.0,130.47754007882708,0.007664154301160622
4.14184468,0.10564235999999999,-1.1,0.0008086961170106191,4991.0,130.63295071888268,0.007655036455174034
4.192911015,0.10705742,-1.1,0.000818644278701663,4991.0,130.77404042912116,0.007646777576945745
4.24289025,0.10844952999999999,-1.1,0.0008283792266078943,4991.0,130.9177325028861,0.007638384662505171
4.293920744999999,0.10989734,-1.1,0.0008383136455620115,4991.0,131.09334505264317,0.007628152287962672
4.34390258,0.11129939,-1.1,0.000848047122821078,4991.0,131.24198762653202,0.0076195127648145955
4.3950095099999995,0.1127321,-1.1,0.0008579998817872169,4991.0,131.3894120418509,0.007610963352826895
4.44492831,0.11413725499999999,-1.1,0.0008677201071929472,4991.0,131.53694843978107,0.0076024266326796385
4.49591983,0.11555365000000001,-1.1,0.000877653011420557,4991.0,131.66211304051296,0.007595199385052372
4.545947845000001,0.11695179,-1.1,0.0008873965247445403,4991.0,131.79203066370758,0.00758771220812046
4.596992804999999,0.11839163999999999,-1.1,0.0008973354367862151,4991.0,131.9368824037717,0.007579381760284892
4.64696832,0.11981220000000001,-1.1,0.0009070639390903626,4991.0,132.08793210338857,0.007570714327008123
4.6979509,0.12127161,-1.1,0.0009169864335804448,4991.0,132.25016811479486,0.007561427060962123
4.74799161,0.12268288499999999,-1.1,0.0009267298587457423,4991.0,132.3825749674688,0.00755386424720728
4.7989999999999995,0.12411964,-1.1,0.0009366620637146863,4991.0,132.51272236622546,0.007546445217813121
4.848992745,0.125559585,-1.1,0.0009463901342416349,4991.0,132.67211951719457,0.007537378641715285
4.899987715,0.12702618,-1.1,0.0009563136716088961,4991.0,132.8289909170617,0.00752847697702077
4.950069925,0.12845609,-1.1,0.0009660616780204368,4991.0,132.96882892945322,0.007520559578144072
5.001050955,0.129910665,-1.1,0.0009759848306952516,4991.0,133.10725834484228,0.007512738316713655
0.001304620503,1.37825e-05,-1.1444444444444446,2.5863314025245445e-07,4991.0,53.289767840837264,0.018765328514598546
0.05015364825,0.0012695745,-1.1444444444444446,9.794444750550991e-06,4991.0,129.62189611908113,0.007714745964534567
0.10109045,0.0025558925,-1.1444444444444446,1.9742447906231214e-05,4991.0,129.46178265934773,0.007724287271953422
0.151082248,0.003819648,-1.1444444444444446,2.9505630134241633e-05,4991.0,129.45488649528124,0.0077246987508382
0.2021760535,0.0051134735,-1.1444444444444446,3.948358645562012e-05,4991.0,129.5088404835662,0.007721480605232454
0.252056352,0.0063785414999999995,-1.1444444444444446,4.922416559807653e-05,4991.0,129.5815058010703,0.007717150636721033
0.3031020755,0.0076757945,-1.1444444444444446,5.919180144259668e-05,4991.0,129.6766496867623,0.007711488555692402
0.3530907885,0.008948675,-1.1444444444444446,6.895253726708073e-05,4991.0,129.78021338559603,0.007705334841982834
0.4040935355,0.0102491385,-1.1444444444444446,7.891091905429774e-05,4991.0,129.8823866561189,0.007699273363736644
0.454127505,0.0115293385,-1.1444444444444446,8.867925596072932e-05,4991.0,130.01167381361034,0.007691616996129423
0.505098993,0.012835862,-1.1444444444444446,9.863016048888e-05,4991.0,130.14134759972507,0.0076839530129632115
0.555132438,0.0141204825,-1.1444444444444446,0.00010839750661190142,4991.0,130.26575002832817,0.007676614918215537
0.6061610749999999,0.015431951,-1.1444444444444446,0.00011835887076738126,4991.0,130.38271571827906,0.0076697282649083875
0.6561046865,0.016717311,-1.1444444444444446,0.0001281080696253256,4991.0,130.4938170475341,0.00766319832330245
0.7071233395000001,0.0180345825,-1.1444444444444446,0.00013806627068723703,4991.0,130.62265251484868,0.007655639973214629
0.757213845,0.0193300245,-1.1444444444444446,0.00014784288128631538,4991.0,130.7470764355918,0.007648354573286515
0.8081570385000001,0.0206504365,-1.1444444444444446,0.00015778533400120218,4991.0,130.87678034666177,0.007640774760436767
0.858239472,0.021952043,-1.1444444444444446,0.00016755909216589862,4991.0,131.0107539748753,0.0076329611857036996
0.909147963,0.023280503,-1.1444444444444446,0.00017749297936285315,4991.0,131.16295125345275,0.007624104142545938
0.9591972295,0.024588511,-1.1444444444444446,0.00018725880955720295,4991.0,131.30763277916074,0.007615703511172472
1.0102525249999998,0.025923439,-1.1444444444444446,0.00019722081466639948,4991.0,131.44372739687591,0.007607818340244112
1.060224005,0.0272314725,-1.1444444444444446,0.00020697105439791626,4991.0,131.57140537944787,0.007600435650254179
1.1112393200000001,0.028566887,-1.1444444444444446,0.00021692495151272293,4991.0,131.69018501923932,0.007593580340508327
1.1612953099999999,0.0298807785,-1.1444444444444446,0.000226690950010018,4991.0,131.8128425447928,0.0075865141870389355
1.21223302,0.0312221715,-1.1444444444444446,0.00023662810028050489,4991.0,131.94616980396012,0.007578848264301696
1.262206745,0.0325405365,-1.1444444444444446,0.00024637671979563214,4991.0,132.0763444167621,0.007571378541826811
1.313239985,0.033890257,-1.1444444444444446,0.00025633134201562816,4991.0,132.2126928900242,0.007563570320981283
1.36324149,0.035214148,-1.1444444444444446,0.00026608442035664195,4991.0,132.34201368423334,0.007556179418472426
1.4142747949999999,0.0365676205,-1.1444444444444446,0.00027603830384692444,4991.0,132.47299374900658,0.007548708394819522
1.464273065,0.03789687,-1.1444444444444446,0.00028578966038869967,4991.0,132.60406254185978,0.00754124708422357
1.51531322,0.039256624500000004,-1.1444444444444446,0.00029574365768383085,4991.0,132.73868595338698,0.007533598760734786
1.565314775,0.040592751,-1.1444444444444446,0.0003054942945301543,4991.0,132.8756435940352,0.007525833726572369
1.61629761,0.0419566665,-1.1444444444444446,0.000315435973452214,4991.0,133.0116728311462,0.0075181371583038885
1.6663598949999998,0.043299339,-1.1444444444444446,0.0003251974666399519,4991.0,133.14783613594267,0.007510448753962547
1.7173920900000001,0.0446724105,-1.1444444444444446,0.0003351472008615508,4991.0,133.29190989858262,0.0075023307923254064
1.76730998,0.046019492499999995,-1.1444444444444446,0.00034487887948306956,4991.0,133.43667947708911,0.0074941912817284885
1.8184265050000001,0.047403719,-1.1444444444444446,0.00035484327509517134,4991.0,133.5905801999094,0.007485557727974283
1.868373185,0.048751207000000005,-1.1444444444444446,0.00036458064075335606,4991.0,133.71858390303527,0.007478392088904713
1.91941183,0.0501277285,-1.1444444444444446,0.00037453097605690244,4991.0,133.84134211741167,0.007471532967166116
1.96936628,0.0514779355,-1.1444444444444446,0.0003842693537367261,4991.0,133.96315631058366,0.007464739018850631
2.020375945,0.052863568,-1.1444444444444446,0.000394212057102785,4991.0,134.09931798767028,0.0074571594770671745
2.070432255,0.0542345905,-1.1444444444444446,0.0004039666729112402,4991.0,134.25511097029644,0.007448506003032146
2.12142864,0.0556330775,-1.1444444444444446,0.00041390413995191343,4991.0,134.41053647461305,0.007439892929739747
2.171414185,0.0570020495,-1.1444444444444446,0.00042364498807854144,4991.0,134.55145488333295,0.0074321009822382175
2.22245404,0.0584045365,-1.1444444444444446,0.0004335903633540373,4991.0,134.69980293891183,0.007423915834928975
2.272485685,0.059785414999999995,-1.1444444444444446,0.00044333806251252255,4991.0,134.8528810298378,0.00741548858551074
2.3234256799999997,0.061200732,-1.1444444444444446,0.00045326085914646353,4991.0,135.02320080151466,0.00740613460548909
2.373474435,0.0625918755,-1.1444444444444446,0.00046300992977359244,4991.0,135.18473681678242,0.00739728480853066
2.4244616,0.0640094675,-1.1444444444444446,0.0004729417215988779,4991.0,135.3432454290619,0.007388621403527187
2.47459487,0.06540360349999999,-1.1444444444444446,0.0004827071261270286,4991.0,135.4933456747611,0.007380436249617786
2.525520665,0.066822258,-1.1444444444444446,0.000492626408936085,4991.0,135.64489598581335,0.007372190400032352
2.576493595,0.06825276799999999,-1.1444444444444446,0.0005025527603686636,4991.0,135.8121442809925,0.007363111784252672
2.62655357,0.06965855300000001,-1.1444444444444446,0.0005123011454618313,4991.0,135.9718861007112,0.007354461489629726
2.67761298,0.0710967775,-1.1444444444444446,0.000522243278401122,4991.0,136.13727632391345,0.007345526713937519
2.72755991,0.072507434,-1.1444444444444446,0.0005319680376678021,4991.0,136.30035804007963,0.007336737880805465
2.7786376649999998,0.07395321399999999,-1.1444444444444446,0.000541912332398317,4991.0,136.46711761053413,0.007327772561694439
2.8286088300000003,0.0753651025,-1.1444444444444446,0.0005516417005610099,4991.0,136.61966168140484,0.0073195906628138645
2.879619875,0.0768108875,-1.1444444444444446,0.0005615726282308154,4991.0,136.77818974544016,0.0073111071426015676
2.9296135750000003,0.0782322315,-1.1444444444444446,0.0005713046170106192,4991.0,136.93610933752677,0.0073026757137896435
2.980618205,0.079689103,-1.1444444444444446,0.0005812320380685233,4991.0,137.10376885763685,0.0072937455208715715
3.03067411,0.0811233005,-1.1444444444444446,0.0005909739149469044,4991.0,137.27052658032878,0.0072848849998023
3.0816841950000002,0.082590332,-1.1444444444444446,0.0006009003933079544,4991.0,137.44429679158728,0.0072756747521968345
3.1316335449999997,0.084025443,-1.1444444444444446,0.0006106207377279102,4991.0,137.60659900391616,0.007267093346094114
3.18269534,0.08549261899999999,-1.1444444444444446,0.0006205575477860148,4991.0,137.7674307645037,0.007258609632558044
3.23272615,0.086930605,-1.1444444444444446,0.0006302936375475857,4991.0,137.92080360867826,0.0072505378002095545
3.2836885049999998,0.0883996725,-1.1444444444444446,0.000640210144760569,4991.0,138.07914982831213,0.007242223038332738
3.33371249,0.08985027300000001,-1.1444444444444446,0.0006499423396113003,4991.0,138.243452571093,0.007233615635328122
3.384688025,0.091341225,-1.1444444444444446,0.000659857102785013,4991.0,138.42576614615865,0.007224088606048508
3.434829895,0.09279949500000001,-1.1444444444444446,0.0006696113804848727,4991.0,138.5870935060914,0.007215679142271977
3.48573166,0.094281951,-1.1444444444444446,0.0006795130653175716,4991.0,138.74928358579413,0.007207244420701176
3.535750745,0.0957489635,-1.1444444444444446,0.0006892409900821478,4991.0,138.91942713475018,0.007198417245343316
3.58679319,0.097250037,-1.1444444444444446,0.0006991671314365859,4991.0,139.09412017149512,0.0071893765082740885
3.63683207,0.0987270375,-1.1444444444444446,0.0007088970211380485,4991.0,139.2685179315688,0.00718037367563114
3.68773829,0.10022996,-1.1444444444444446,0.0007187954978962131,4991.0,139.44155228205423,0.007171463481539982
3.73775765,0.10170994,-1.1444444444444446,0.0007285208795832497,4991.0,139.61156481634836,0.0071627304035696985
3.78879227,0.10322281999999999,-1.1444444444444446,0.0007384430875576037,4991.0,139.7843946801762,0.007153874381242479
3.83881093,0.10470839500000001,-1.1444444444444446,0.0007481672079743539,4991.0,139.95320014558732,0.007145245688985624
3.889804725,0.106226025,-1.1444444444444446,0.0007580802845121217,4991.0,140.12503315313623,0.007136483592529436
3.9397953350000003,0.10772101,-1.1444444444444446,0.0007677968994189542,4991.0,140.2988343421549,0.007127642967875571
3.99084329,0.109248635,-1.1444444444444446,0.0007777188248847926,4991.0,140.47317810030322,0.007118796723499498
4.040865025,0.110749525,-1.1444444444444446,0.000787440492887197,4991.0,140.6449452376145,0.0071101026653360095
4.09185953,0.112278165,-1.1444444444444446,0.0007973515057102784,4991.0,140.8138872202705,0.007101572293333066
4.141878495,0.113781455,-1.1444444444444446,0.0008070721378481267,4991.0,140.98052660245742,0.007093178214746214
